(1634776335.304498) can0 156#0080000000000000
(1634776335.305099) can0 140#000F004000001501
(1634776335.305331) can0 141#8426D3290080BE08
(1634776335.305573) can0 142#8426000000000000
(1634776335.305832) can0 144#C000005526A4A000
(1634776335.306045) can0 152#F0D7000000010800
(1634776335.307414) can0 018#FF91700E0000002E
(1634776335.315153) can0 140#0000004000001501
(1634776335.315350) can0 141#8426D3290080BE08
(1634776335.315582) can0 142#8426000000000000
(1634776335.315867) can0 0D0#510000000000FFFF
(1634776335.315992) can0 0D1#00000000
(1634776335.316259) can0 0D2#0000FFFF00000000
(1634776335.316483) can0 0D3#0006C06400005B
(1634776335.316727) can0 0D4#0000000000000000
(1634776335.316986) can0 282#77524B8080012000
(1634776335.317415) can0 018#FF91700000000020
(1634776335.321366) can0 372#00F0010000000000
(1634776335.325093) can0 140#0001004000001501
(1634776335.325326) can0 141#8426D3290080BE08
(1634776335.325570) can0 142#8426000000000000
(1634776335.325829) can0 144#C000005526A4A000
(1634776335.326048) can0 152#F0E7000000010800
(1634776335.327409) can0 018#FF91700200000022
(1634776335.327664) can0 156#0080000000000000
(1634776335.328219) can0 370#00002301000F0000
(1634776335.335114) can0 140#0002004000001501
(1634776335.335346) can0 141#8426D3290080BE08
(1634776335.335590) can0 142#8426000000000000
(1634776335.335857) can0 0D0#510000000000FFFF
(1634776335.335978) can0 0D1#00000000
(1634776335.336261) can0 0D2#0000FFFF00000000
(1634776335.336484) can0 0D3#0006C06400005C
(1634776335.336729) can0 0D4#0000000000000000
(1634776335.336988) can0 360#00004040DA000100
(1634776335.337205) can0 361#060900D821607A6B
(1634776335.337445) can0 018#FF91700400000024
(1634776335.344580) can0 156#0080000000000000
(1634776335.345108) can0 140#0003004000001501
(1634776335.345324) can0 141#8426D3290080BE08
(1634776335.345575) can0 142#8426000000000000
(1634776335.345861) can0 144#C000005526A4A000
(1634776335.346067) can0 152#F0F7000000010800
(1634776335.347448) can0 018#FF91700600000026
(1634776335.354344) can0 442#4002000000000000
(1634776335.355224) can0 140#0004004000001501
(1634776335.355391) can0 141#8426D3290080BE08
(1634776335.355617) can0 142#8426000000000000
(1634776335.355960) can0 0D0#510000000000FFFF
(1634776335.356099) can0 0D1#00000000
(1634776335.356245) can0 0D2#0000FFFF00000000
(1634776335.356476) can0 0D3#0006C06400005D
(1634776335.356725) can0 0D4#0000000000000000
(1634776335.357398) can0 018#FF91700800000028
(1634776335.364415) can0 156#0080000000000000
(1634776335.365094) can0 140#0005004000001501
(1634776335.365328) can0 141#8426D3290080BE08
(1634776335.365572) can0 142#8426000000000000
(1634776335.365829) can0 144#C000005526A4A000
(1634776335.366047) can0 152#F007000000010800
(1634776335.367398) can0 018#FF91700A0000002A
(1634776335.375113) can0 140#0006004000001501
(1634776335.375346) can0 141#8426D3290080BE08
(1634776335.375591) can0 142#8426000000000000
(1634776335.375858) can0 0D0#510000000000FFFF
(1634776335.375977) can0 0D1#00000000
(1634776335.376262) can0 0D2#0000FFFF00000000
(1634776335.376485) can0 0D3#0006C06400005E
(1634776335.376731) can0 0D4#0000000000000000
(1634776335.376982) can0 282#77624B8080012000
(1634776335.377392) can0 018#FF91700C0000002C
(1634776335.379009) can0 370#0000230100000000
(1634776335.385116) can0 140#0007004000001501
(1634776335.385326) can0 141#8426D3290080BE08
(1634776335.385572) can0 142#8426000000000000
(1634776335.385843) can0 144#C000005526A4A000
(1634776335.386046) can0 152#F017000000010800
(1634776335.386296) can0 360#00004040DA000100
(1634776335.386526) can0 361#060900D822407A6C
(1634776335.387389) can0 018#FF91700E0000002E
(1634776335.387637) can0 156#0080000000000000
(1634776335.395210) can0 140#0008004000001501
(1634776335.395443) can0 141#8426D3290080BE08
(1634776335.395687) can0 142#8426000000000000
(1634776335.395952) can0 0D0#510000000000FFFF
(1634776335.396117) can0 0D1#00000000
(1634776335.396358) can0 0D2#0000FFFF00000000
(1634776335.396580) can0 0D3#0006C06400005F
(1634776335.396849) can0 0D4#0000000000000000
(1634776335.397390) can0 018#FF91700000000020
(1634776335.404336) can0 156#0080000000000000
(1634776335.405097) can0 140#0009004000001501
(1634776335.405330) can0 141#8426D3290080BE08
(1634776335.405574) can0 142#8426000000000000
(1634776335.405831) can0 144#C000005526A4A000
(1634776335.406051) can0 152#F027000000010800
(1634776335.407384) can0 018#FF91700200000022
(1634776335.415113) can0 140#000A004000001501
(1634776335.415347) can0 141#8426D3290080BE08
(1634776335.415591) can0 142#8426000000000000
(1634776335.415858) can0 0D0#510000000000FFFF
(1634776335.415976) can0 0D1#00000000
(1634776335.416262) can0 0D2#0000FFFF00000000
(1634776335.416485) can0 0D3#0006C064000060
(1634776335.416732) can0 0D4#0000000000000000
(1634776335.417377) can0 018#FF91700400000024
(1634776335.421368) can0 372#0000010000000000
(1634776335.424447) can0 156#0080000000000000
(1634776335.425097) can0 140#000B004000001501
(1634776335.425332) can0 141#8426D3290080BE08
(1634776335.425576) can0 142#8426000000000000
(1634776335.425833) can0 144#C000005526A4A000
(1634776335.426056) can0 152#F037000000010800
(1634776335.427376) can0 018#FF91700600000026
(1634776335.429297) can0 370#0000230100010000
(1634776335.435221) can0 140#000C004000001501
(1634776335.435428) can0 141#8426D3290080BE08
(1634776335.435668) can0 142#8426000000000000
(1634776335.435934) can0 0D0#510000000000FFFF
(1634776335.436062) can0 0D1#00000000
(1634776335.436257) can0 0D2#0000FFFF00000000
(1634776335.436476) can0 0D3#0006C064000061
(1634776335.436738) can0 0D4#0000000000000000
(1634776335.436980) can0 282#77724B8080012000
(1634776335.437212) can0 360#00004040DA000100
(1634776335.437452) can0 018#FF91700800000028
(1634776335.437683) can0 361#060900D823607A6B
(1634776335.437943) can0 6E1#A180000000700000
(1634776335.445098) can0 140#000D004000001501
(1634776335.445330) can0 141#8426D3290080BE08
(1634776335.445575) can0 142#8426000000000000
(1634776335.445833) can0 144#C000005526A4A000
(1634776335.446054) can0 440#4202000000000000
(1634776335.447373) can0 018#FF91700A0000002A
(1634776335.447621) can0 156#0080000000000000
(1634776335.451041) can0 152#F047000000010800
(1634776335.455116) can0 140#000E004000001501
(1634776335.455350) can0 141#8426D3290080BE08
(1634776335.455593) can0 142#8426000000000000
(1634776335.455860) can0 0D0#510000000000FFFF
(1634776335.455979) can0 0D1#00000000
(1634776335.456264) can0 0D2#0000FFFF00000000
(1634776335.456593) can0 0D3#0006C064000062
(1634776335.456816) can0 0D4#0000000000000000
(1634776335.457367) can0 018#FF91700C0000002C
(1634776335.464350) can0 156#0080000000000000
(1634776335.465101) can0 140#000F004000001501
(1634776335.465335) can0 141#8426D3290080BE08
(1634776335.465580) can0 142#8426000000000000
(1634776335.465837) can0 144#C000005526A4A000
(1634776335.466059) can0 152#F057000000010800
(1634776335.467367) can0 018#FF91700E0000002E
(1634776335.475118) can0 140#0000004000001501
(1634776335.475351) can0 141#8426D3290080BE08
(1634776335.475595) can0 142#8426000000000000
(1634776335.475861) can0 0D0#510000000000FFFF
(1634776335.475980) can0 0D1#00000000
(1634776335.476266) can0 0D2#0000FFFF00000000
(1634776335.476491) can0 0D3#0006C064000063
(1634776335.476734) can0 0D4#0000000000000000
(1634776335.477505) can0 018#FF91700000000020
(1634776335.480046) can0 370#0000230100020000
(1634776335.484367) can0 156#0080000000000000
(1634776335.485099) can0 140#0001004000001501
(1634776335.485333) can0 141#8426D3290080BE08
(1634776335.485577) can0 142#8426000000000000
(1634776335.485849) can0 144#C000005526A4A000
(1634776335.486053) can0 152#F067000000010800
(1634776335.486300) can0 360#00004040DA000100
(1634776335.486533) can0 361#060900D824707A6B
(1634776335.487360) can0 018#FF91700200000022
(1634776335.495120) can0 140#0002004000001501
(1634776335.495353) can0 141#8426D3290080BE08
(1634776335.495596) can0 142#8426000000000000
(1634776335.495863) can0 0D0#510000000000FFFF
(1634776335.495982) can0 0D1#00000000
(1634776335.496268) can0 0D2#0000FFFF00000000
(1634776335.496493) can0 0D3#0006C064000064
(1634776335.496738) can0 0D4#0000000000000000
(1634776335.496990) can0 282#77824B8080012000
(1634776335.497356) can0 018#FF91700400000024
(1634776335.505103) can0 140#0003004000001501
(1634776335.505334) can0 141#8426D3290080BE08
(1634776335.505578) can0 142#8426000000000000
(1634776335.505836) can0 144#C000005526A4A000
(1634776335.506055) can0 152#F077000000010800
(1634776335.507352) can0 018#FF91700600000026
(1634776335.507600) can0 156#0080000000000000
(1634776335.515127) can0 140#0004004000001501
(1634776335.515352) can0 141#8426D3290080BE08
(1634776335.515595) can0 142#8426000000000000
(1634776335.515862) can0 0D0#510000000000FFFF
(1634776335.515982) can0 0D1#00000000
(1634776335.516267) can0 0D2#0000FFFF00000000
(1634776335.516491) can0 0D3#0006C064000065
(1634776335.516735) can0 0D4#0000000000000000
(1634776335.517348) can0 018#FF91700800000028
(1634776335.521351) can0 372#0010010000000000
(1634776335.524375) can0 156#0080000000000000
(1634776335.525100) can0 140#0005004000001501
(1634776335.525335) can0 141#8426D3290080BE08
(1634776335.525579) can0 142#8426000000000000
(1634776335.525836) can0 144#C000005526A4A000
(1634776335.526056) can0 152#F087000000010800
(1634776335.527347) can0 018#FF91700A0000002A
(1634776335.530359) can0 370#0000230100030000
(1634776335.535119) can0 140#0006004000001501
(1634776335.535353) can0 141#8426D3290080BE08
(1634776335.535597) can0 142#8426000000000000
(1634776335.535863) can0 0D0#510000000000FFFF
(1634776335.535982) can0 0D1#00000000
(1634776335.536268) can0 0D2#0000FFFF00000000
(1634776335.536489) can0 0D3#0006C064000066
(1634776335.536736) can0 0D4#0000000000000000
(1634776335.536994) can0 360#00004040DA000100
(1634776335.537216) can0 361#060900D825507A6C
(1634776335.537456) can0 018#FF91700C0000002C
(1634776335.544363) can0 442#4002000000000000
(1634776335.544606) can0 156#0080000000000000
(1634776335.545101) can0 140#0007004000001501
(1634776335.545336) can0 141#8426D3290080BE08
(1634776335.545580) can0 142#8426000000000000
(1634776335.545837) can0 144#C000005526A4A000
(1634776335.546056) can0 152#F097000000010800
(1634776335.547340) can0 018#FF91700E0000002E
(1634776335.555216) can0 140#0008004000001501
(1634776335.555450) can0 141#8426D3290080BE08
(1634776335.555697) can0 0D0#510000000000FFFF
(1634776335.555880) can0 0D1#00000000
(1634776335.556116) can0 0D2#0000FFFF00000000
(1634776335.556340) can0 0D3#0006C064000067
(1634776335.556590) can0 0D4#0000000000000000
(1634776335.556853) can0 142#8426000000000000
(1634776335.557065) can0 282#77924B8080012000
(1634776335.557342) can0 018#FF91700000000020
(1634776335.565104) can0 140#0009004000001501
(1634776335.565337) can0 141#8426D3290080BE08
(1634776335.565582) can0 142#8426000000000000
(1634776335.565838) can0 144#C000005526A4A000
(1634776335.566057) can0 152#F0A7000000010800
(1634776335.567336) can0 018#FF91700200000022
(1634776335.567584) can0 156#0080000000000000
(1634776335.575122) can0 140#000A004000001501
(1634776335.575355) can0 141#8426D3290080BE08
(1634776335.575598) can0 142#8426000000000000
(1634776335.575865) can0 0D0#510000000000FFFF
(1634776335.575985) can0 0D1#00000000
(1634776335.576270) can0 0D2#0000FFFF00000000
(1634776335.576491) can0 0D3#0006C064000068
(1634776335.576737) can0 0D4#0000000000000000
(1634776335.577331) can0 018#FF91700400000024
(1634776335.581100) can0 370#0000230100040000
(1634776335.584383) can0 156#0080000000000000
(1634776335.585105) can0 140#000B004000001501
(1634776335.585340) can0 141#8426D3290080BE08
(1634776335.585584) can0 142#8426000000000000
(1634776335.585853) can0 144#C000005526A4A000
(1634776335.586059) can0 152#F0B7000000010800
(1634776335.586306) can0 360#00004040DA000100
(1634776335.586540) can0 361#060900D826207A6C
(1634776335.587327) can0 018#FF91700600000026
(1634776335.595129) can0 140#000C004000001501
(1634776335.595355) can0 141#8426D3290080BE08
(1634776335.595601) can0 142#8426000000000000
(1634776335.595866) can0 0D0#510000000000FFFF
(1634776335.595988) can0 0D1#00000000
(1634776335.596270) can0 0D2#0000FFFF00000000
(1634776335.596491) can0 0D3#0006C064000069
(1634776335.596738) can0 0D4#0000000000000000
(1634776335.597323) can0 018#FF91700800000028
(1634776335.604305) can0 156#0080000000000000
(1634776335.605104) can0 140#000D004000001501
(1634776335.605338) can0 141#8426D3290080BE08
(1634776335.605582) can0 142#8426000000000000
(1634776335.605839) can0 144#C000005526A4A000
(1634776335.606058) can0 152#F0C7000000010800
(1634776335.607324) can0 018#FF91700A0000002A
(1634776335.615122) can0 140#000E004000001501
(1634776335.615355) can0 141#8426D3290080BE08
(1634776335.615599) can0 142#8426000000000000
(1634776335.615866) can0 0D0#510000000000FFFF
(1634776335.615985) can0 0D1#00000000
(1634776335.616270) can0 0D2#0000FFFF00000000
(1634776335.616490) can0 0D3#0006C06400006A
(1634776335.616739) can0 0D4#0000000000000000
(1634776335.616990) can0 282#77A24B8080012000
(1634776335.617226) can0 374#0000000100000000
(1634776335.617466) can0 018#FF91700C0000002C
(1634776335.621342) can0 372#0020010000000000
(1634776335.625110) can0 140#000F004000001501
(1634776335.625344) can0 141#8426D3290080BE08
(1634776335.625587) can0 142#8426000000000000
(1634776335.625840) can0 144#C000005526A4A000
(1634776335.626059) can0 152#F0D7000000010800
(1634776335.627315) can0 018#FF91700E0000002E
(1634776335.627563) can0 156#0080000000000000
(1634776335.631416) can0 370#0000230100050000
(1634776335.635126) can0 140#0000004000001501
(1634776335.635359) can0 141#8426D3290080BE08
(1634776335.635603) can0 142#8426000000000000
(1634776335.635870) can0 0D0#510000000000FFFF
(1634776335.635989) can0 0D1#00000000
(1634776335.636274) can0 0D2#0000FFFF00000000
(1634776335.636496) can0 0D3#0006C06400006B
(1634776335.636742) can0 0D4#0000000000000000
(1634776335.636998) can0 360#00004040DA000100
(1634776335.637224) can0 361#060900D827707A6B
(1634776335.637470) can0 018#FF91700000000020
(1634776335.637719) can0 440#4202000000000000
(1634776335.640516) can0 375#0001000400000010
(1634776335.644377) can0 156#0080000000000000
(1634776335.645106) can0 140#0001004000001501
(1634776335.645340) can0 141#8426D3290080BE08
(1634776335.645584) can0 142#8426000000000000
(1634776335.645839) can0 144#C000005526A4A000
(1634776335.646525) can0 152#F0E7000000010800
(1634776335.647313) can0 018#FF91700200000022
(1634776335.655127) can0 140#0002004000001501
(1634776335.655360) can0 141#8426D3290080BE08
(1634776335.655604) can0 142#8426000000000000
(1634776335.655871) can0 0D0#510000000000FFFF
(1634776335.655992) can0 0D1#00000000
(1634776335.656275) can0 0D2#0000FFFF00000000
(1634776335.656497) can0 0D3#0006C06400006C
(1634776335.656742) can0 0D4#0000000000000000
(1634776335.656994) can0 63B#00001A7B000028E4
(1634776335.657307) can0 018#FF91700400000024
(1634776335.664311) can0 156#0080000000000000
(1634776335.665107) can0 140#0003004000001501
(1634776335.665340) can0 141#8426D3290080BE08
(1634776335.665585) can0 142#8426000000000000
(1634776335.665839) can0 144#C000005526A4A000
(1634776335.666059) can0 152#F0F7000000010800
(1634776335.667304) can0 018#FF91700600000026
(1634776335.675130) can0 140#0004004000001501
(1634776335.675358) can0 141#8426D3290080BE08
(1634776335.675602) can0 142#8426000000000000
(1634776335.675869) can0 0D0#510000000000FFFF
(1634776335.675987) can0 0D1#00000000
(1634776335.676272) can0 0D2#0000FFFF00000000
(1634776335.676494) can0 0D3#0006C06400006D
(1634776335.676741) can0 0D4#0000000000000000
(1634776335.676991) can0 282#77B24B8080012000
(1634776335.677300) can0 018#FF91700800000028
(1634776335.682015) can0 370#0000230100060000
(1634776335.685108) can0 140#0005004000001501
(1634776335.685342) can0 141#8426D3290080BE08
(1634776335.685585) can0 142#8426000000000000
(1634776335.685854) can0 144#C000005526A4A000
(1634776335.686059) can0 152#F007000000010800
(1634776335.686310) can0 360#00004040DA000100
(1634776335.686543) can0 361#060900D828607A6B
(1634776335.687300) can0 018#FF91700A0000002A
(1634776335.687548) can0 156#0080000000000000
(1634776335.695233) can0 140#0006004000001501
(1634776335.695338) can0 141#8426D3290080BE08
(1634776335.695607) can0 142#8426000000000000
(1634776335.695873) can0 0D0#510000000000FFFF
(1634776335.695991) can0 0D1#00000000
(1634776335.696276) can0 0D2#0000FFFF00000000
(1634776335.696498) can0 0D3#0006C06400006E
(1634776335.696743) can0 0D4#0000000000000000
(1634776335.697294) can0 018#FF91700C0000002C
(1634776335.704267) can0 156#0080000000000000
(1634776335.705110) can0 140#0007004000001501
(1634776335.705440) can0 141#8426D3290080BE08
(1634776335.705647) can0 142#8426000000000000
(1634776335.705838) can0 144#C000005526A4A000
(1634776335.706059) can0 152#F017000000010800
(1634776335.707293) can0 018#FF91700E0000002E
(1634776335.715223) can0 140#0008004000001501
(1634776335.715457) can0 141#8426D3290080BE08
(1634776335.715759) can0 0D0#510000000000FFFF
(1634776335.716025) can0 0D1#00000000
(1634776335.716123) can0 0D2#0000FFFF00000000
(1634776335.716341) can0 0D3#0006C06400006F
(1634776335.716598) can0 0D4#0000000000000000
(1634776335.716860) can0 142#8426000000000000
(1634776335.717296) can0 018#FF91700000000020
(1634776335.721339) can0 372#0030010000000000
(1634776335.724283) can0 156#0080000000000000
(1634776335.725109) can0 140#0009004000001501
(1634776335.725344) can0 141#8426D3290080BE08
(1634776335.725587) can0 142#8426000000000000
(1634776335.725846) can0 144#C000005526A4A000
(1634776335.726069) can0 152#F027000000010800
(1634776335.727289) can0 018#FF91700200000022
(1634776335.732474) can0 370#0000230100070000
(1634776335.734040) can0 442#4002000000000000
(1634776335.735126) can0 140#000A004000001501
(1634776335.735361) can0 141#8426D3290080BE08
(1634776335.735605) can0 142#8426000000000000
(1634776335.735872) can0 0D0#510000000000FFFF
(1634776335.735991) can0 0D1#00000000
(1634776335.736276) can0 0D2#0000FFFF00000000
(1634776335.736601) can0 0D3#0006C064000070
(1634776335.736823) can0 0D4#0000000000000000
(1634776335.736996) can0 282#77C24B8080012000
(1634776335.737232) can0 360#00004040DA000100
(1634776335.737468) can0 018#FF91700400000024
(1634776335.737704) can0 361#060900D829307A6B
(1634776335.745113) can0 140#000B004000001501
(1634776335.745347) can0 141#8426D3290080BE08
(1634776335.745591) can0 142#8426000000000000
(1634776335.745849) can0 144#C000005526A4A000
(1634776335.746072) can0 152#F037000000010800
(1634776335.747280) can0 018#FF91700600000026
(1634776335.747527) can0 156#0080000000000000
(1634776335.755131) can0 140#000C004000001501
(1634776335.755362) can0 141#8426D3290080BE08
(1634776335.755606) can0 142#8426000000000000
(1634776335.755876) can0 0D0#510000000000FFFF
(1634776335.755995) can0 0D1#00000000
(1634776335.756278) can0 0D2#0000FFFF00000000
(1634776335.756500) can0 0D3#0006C064000071
(1634776335.756747) can0 0D4#0000000000000000
(1634776335.757425) can0 018#FF91700800000028
(1634776335.764189) can0 156#0080000000000000
(1634776335.765111) can0 140#000D004000001501
(1634776335.765345) can0 141#8426D3290080BE08
(1634776335.765589) can0 142#8426000000000000
(1634776335.765846) can0 144#C000005526A4A000
(1634776335.766061) can0 152#F047000000010800
(1634776335.767275) can0 018#FF91700A0000002A
(1634776335.775132) can0 140#000E004000001501
(1634776335.775363) can0 141#8426D3290080BE08
(1634776335.775607) can0 142#8426000000000000
(1634776335.775874) can0 0D0#510000000000FFFF
(1634776335.775993) can0 0D1#00000000
(1634776335.776278) can0 0D2#0000FFFF00000000
(1634776335.776503) can0 0D3#0006C064000072
(1634776335.776748) can0 0D4#0000000000000000
(1634776335.777272) can0 018#FF91700C0000002C
(1634776335.783005) can0 370#0000230100080000
(1634776335.784250) can0 156#0080000000000000
(1634776335.785117) can0 140#000F004000001501
(1634776335.785352) can0 141#8426D3290080BE08
(1634776335.785596) can0 142#8426000000000000
(1634776335.785866) can0 144#C000005526A4A000
(1634776335.786067) can0 152#F057000000010800
(1634776335.786319) can0 360#00004040DA000100
(1634776335.786553) can0 361#060900D82A607A6B
(1634776335.787268) can0 018#FF91700E0000002E
(1634776335.795133) can0 140#0000004000001501
(1634776335.795366) can0 141#8426D3290080BE08
(1634776335.795609) can0 142#8426000000000000
(1634776335.795873) can0 0D0#510000000000FFFF
(1634776335.795996) can0 0D1#00000000
(1634776335.796280) can0 0D2#0000FFFF00000000
(1634776335.796502) can0 0D3#0006C064000073
(1634776335.796750) can0 0D4#0000000000000000
(1634776335.797002) can0 282#77D24B8080012000
(1634776335.797274) can0 018#FF91700000000020
(1634776335.805115) can0 140#0001004000001501
(1634776335.805347) can0 141#8426D3290080BE08
(1634776335.805592) can0 142#8426000000000000
(1634776335.805849) can0 144#C000005526A4A000
(1634776335.806068) can0 152#F067000000010800
(1634776335.807264) can0 018#FF91700200000022
(1634776335.807512) can0 156#0080000000000000
(1634776335.815134) can0 140#0002004000001501
(1634776335.815367) can0 141#8426D3290080BE08
(1634776335.815611) can0 142#8426000000000000
(1634776335.815875) can0 0D0#510000000000FFFF
(1634776335.815993) can0 0D1#00000000
(1634776335.816282) can0 0D2#0000FFFF00000000
(1634776335.816505) can0 0D3#0006C064000074
(1634776335.816752) can0 0D4#0000000000000000
(1634776335.817260) can0 018#FF91700400000024
(1634776335.821329) can0 372#0040010000000000
(1634776335.824232) can0 156#0080000000000000
(1634776335.825114) can0 140#0003004000001501
(1634776335.825348) can0 141#8426D3290080BE08
(1634776335.825592) can0 142#8426000000000000
(1634776335.825849) can0 144#C000005526A4A000
(1634776335.826077) can0 440#4202000000000000
(1634776335.827256) can0 018#FF91700600000026
(1634776335.830095) can0 152#F077000000010800
(1634776335.833541) can0 370#0000230100090000
(1634776335.835132) can0 140#0004004000001501
(1634776335.835367) can0 141#8426D3290080BE08
(1634776335.835611) can0 142#8426000000000000
(1634776335.835874) can0 0D0#510000000000FFFF
(1634776335.835995) can0 0D1#00000000
(1634776335.836282) can0 0D2#0000FFFF00000000
(1634776335.836504) can0 0D3#0006C064000075
(1634776335.836750) can0 0D4#0000000000000000
(1634776335.837005) can0 360#00004040DA000100
(1634776335.837228) can0 361#060900D82B607A6C
(1634776335.837468) can0 018#FF91700800000028
(1634776335.842256) can0 4C6#0700000000000000
(1634776335.844298) can0 156#0080000000000000
(1634776335.845116) can0 140#0005004000001501
(1634776335.845351) can0 141#8426D3290080BE08
(1634776335.845594) can0 142#8426000000000000
(1634776335.845851) can0 144#C000005526A4A000
(1634776335.846069) can0 152#F087000000010800
(1634776335.847253) can0 018#FF91700A0000002A
(1634776335.855137) can0 140#0006004000001501
(1634776335.855370) can0 141#8426D3290080BE08
(1634776335.855613) can0 142#8426000000000000
(1634776335.855878) can0 0D0#510000000000FFFF
(1634776335.856000) can0 0D1#00000000
(1634776335.856285) can0 0D2#0000FFFF00000000
(1634776335.856506) can0 0D3#0006C064000076
(1634776335.856755) can0 0D4#0000000000000000
(1634776335.857004) can0 282#77E24B8080012000
(1634776335.857246) can0 018#FF91700C0000002C
(1634776335.865119) can0 140#0007004000001501
(1634776335.865352) can0 141#8426D3290080BE08
(1634776335.865596) can0 142#8426000000000000
(1634776335.865852) can0 144#C000005526A4A000
(1634776335.866073) can0 152#F097000000010800
(1634776335.867244) can0 018#FF91700E0000002E
(1634776335.867492) can0 156#0080000000000000
(1634776335.875232) can0 140#0008004000001501
(1634776335.875465) can0 141#8426D3290080BE08
(1634776335.875708) can0 142#8426000000000000
(1634776335.875971) can0 0D0#510000000000FFFF
(1634776335.876136) can0 0D1#00000000
(1634776335.876380) can0 0D2#0000FFFF00000000
(1634776335.876601) can0 0D3#0006C064000077
(1634776335.876867) can0 0D4#0000000000000000
(1634776335.877248) can0 018#FF91700000000020
(1634776335.884005) can0 156#0080000000000000
(1634776335.884261) can0 370#00002301000A0000
(1634776335.885117) can0 140#0009004000001501
(1634776335.885352) can0 141#8426D3290080BE08
(1634776335.885595) can0 142#8426000000000000
(1634776335.885865) can0 144#C000005526A4A000
(1634776335.886067) can0 152#F0A7000000010800
(1634776335.886317) can0 360#00004040DA000100
(1634776335.886551) can0 361#060900D82C507A6C
(1634776335.887240) can0 018#FF91700200000022
(1634776335.895136) can0 140#000A004000001501
(1634776335.895369) can0 141#8426D3290080BE08
(1634776335.895614) can0 142#8426000000000000
(1634776335.895877) can0 0D0#510000000000FFFF
(1634776335.895997) can0 0D1#00000000
(1634776335.896284) can0 0D2#0000FFFF00000000
(1634776335.896506) can0 0D3#0006C064000078
(1634776335.896749) can0 0D4#0000000000000000
(1634776335.897236) can0 018#FF91700400000024
(1634776335.904007) can0 156#0080000000000000
(1634776335.905121) can0 140#000B004000001501
(1634776335.905354) can0 141#8426D3290080BE08
(1634776335.905598) can0 142#8426000000000000
(1634776335.905855) can0 144#C000005526A4A000
(1634776335.906073) can0 152#F0B7000000010800
(1634776335.907233) can0 018#FF91700600000026
(1634776335.915137) can0 140#000C004000001501
(1634776335.915370) can0 141#8426D3290080BE08
(1634776335.915614) can0 142#8426000000000000
(1634776335.915878) can0 0D0#510000000000FFFF
(1634776335.915997) can0 0D1#00000000
(1634776335.916284) can0 0D2#0000FFFF00000000
(1634776335.916505) can0 0D3#0006C064000079
(1634776335.916753) can0 0D4#0000000000000000
(1634776335.917002) can0 282#77F24B8080012000
(1634776335.917230) can0 018#FF91700800000028
(1634776335.921325) can0 372#0050010000000000
(1634776335.923879) can0 442#4002000000000000
(1634776335.925119) can0 140#000D004000001501
(1634776335.925353) can0 141#8426D3290080BE08
(1634776335.925597) can0 142#8426000000000000
(1634776335.925854) can0 144#C000005526A4A000
(1634776335.926073) can0 152#F0C7000000010800
(1634776335.927221) can0 156#0080000000000000
(1634776335.927462) can0 018#FF91700A0000002A
(1634776335.934604) can0 370#00002301000B0000
(1634776335.935137) can0 140#000E004000001501
(1634776335.935371) can0 141#8426D3290080BE08
(1634776335.935615) can0 142#8426000000000000
(1634776335.935879) can0 0D0#510000000000FFFF
(1634776335.935999) can0 0D1#00000000
(1634776335.936287) can0 0D2#0000FFFF00000000
(1634776335.936507) can0 0D3#0006C06400007A
(1634776335.936754) can0 0D4#0000000000000000
(1634776335.937004) can0 360#00004040DA000100
(1634776335.937239) can0 018#FF91700C0000002C
(1634776335.937471) can0 361#060900D82D607A6B
(1634776335.944254) can0 156#0080000000000000
(1634776335.945125) can0 140#000F004000001501
(1634776335.945359) can0 141#8426D3290080BE08
(1634776335.945602) can0 142#8426000000000000
(1634776335.945859) can0 144#C000005526A4A000
(1634776335.946078) can0 152#F0D7000000010800
(1634776335.947221) can0 018#FF91700E0000002E
(1634776335.955141) can0 140#0000004000001501
(1634776335.955373) can0 141#8426D3290080BE08
(1634776335.955618) can0 142#8426000000000000
(1634776335.955880) can0 0D0#510000000000FFFF
(1634776335.955998) can0 0D1#00000000
(1634776335.956288) can0 0D2#0000FFFF00000000
(1634776335.956510) can0 0D3#0006C06400007B
(1634776335.956759) can0 0D4#0000000000000000
(1634776335.957222) can0 018#FF91700000000020
(1634776335.963986) can0 156#0080000000000000
(1634776335.965122) can0 140#0001004000001501
(1634776335.965355) can0 141#8426D3290080BE08
(1634776335.965599) can0 142#8426000000000000
(1634776335.965856) can0 144#C000005526A4A000
(1634776335.966077) can0 152#F0E7000000010800
(1634776335.967217) can0 018#FF91700200000022
(1634776335.975242) can0 140#0002004000001501
(1634776335.975347) can0 141#8426D3290080BE08
(1634776335.975619) can0 142#8426000000000000
(1634776335.975881) can0 0D0#510000000000FFFF
(1634776335.976001) can0 0D1#00000000
(1634776335.976289) can0 0D2#0000FFFF00000000
(1634776335.976513) can0 0D3#0006C06400007C
(1634776335.976779) can0 0D4#0000000000000000
(1634776335.976996) can0 282#77024B8080012000
(1634776335.977237) can0 018#FF91700400000024
(1634776335.985123) can0 140#0003004000001501
(1634776335.985494) can0 141#8426D3290080BE08
(1634776335.985629) can0 142#8426000000000000
(1634776335.985859) can0 144#C000005526A4A000
(1634776335.986068) can0 152#F0F7000000010800
(1634776335.986321) can0 360#00004040DA000100
(1634776335.986557) can0 361#060900D82E707A6B
(1634776335.986825) can0 370#00002301000C0000
(1634776335.987176) can0 156#0080000000000000
(1634776335.987416) can0 018#FF91700600000026
(1634776335.995140) can0 140#0004004000001501
(1634776335.995374) can0 141#8426D3290080BE08
(1634776335.995618) can0 142#8426000000000000
(1634776335.995979) can0 0D0#510000000000FFFF
(1634776335.996078) can0 0D1#00000000
(1634776335.996283) can0 0D2#0000FFFF00000000
(1634776335.996518) can0 0D3#0006C06400007D
(1634776335.996758) can0 0D4#0000000000000000
(1634776335.997016) can0 4C1#0100000000000000
(1634776335.997253) can0 018#FF91700800000028
(1634776336.003912) can0 156#0080000000000000
(1634776336.005123) can0 140#0005004000001501
(1634776336.005356) can0 141#8426D3290080BE08
(1634776336.005600) can0 142#8426000000000000
(1634776336.005857) can0 144#C000005526A4A000
(1634776336.006177) can0 152#F007000000010800
(1634776336.007206) can0 018#FF91700A0000002A
(1634776336.015142) can0 140#0006004000001501
(1634776336.015376) can0 141#8426D3290080BE08
(1634776336.015619) can0 142#8426000000000000
(1634776336.015879) can0 0D0#510000000000FFFF
(1634776336.015999) can0 0D1#00000000
(1634776336.016291) can0 0D2#0000FFFF00000000
(1634776336.016642) can0 0D3#0006C06400007E
(1634776336.016818) can0 0D4#0000000000000000
(1634776336.017000) can0 440#4202000000000000
(1634776336.017250) can0 018#FF91700C0000002C
(1634776336.017496) can0 4C3#0300000000000000
(1634776336.021319) can0 372#0060010000000000
(1634776336.024004) can0 156#0080000000000000
(1634776336.025124) can0 140#0007004000001501
(1634776336.025358) can0 141#8426D3290080BE08
(1634776336.025602) can0 142#8426000000000000
(1634776336.025860) can0 144#C000005526A4A000
(1634776336.026078) can0 152#F017000000010800
(1634776336.026326) can0 4DD#1E00000000000000
(1634776336.027215) can0 018#FF91700E0000002E
(1634776336.035128) can0 282#77124B8080012000
(1634776336.035373) can0 140#0008004000001501
(1634776336.035607) can0 141#8426D3290080BE08
(1634776336.035871) can0 0D0#510000000000FFFF
(1634776336.035990) can0 0D1#00000000
(1634776336.036278) can0 0D2#0000FFFF00000000
(1634776336.036503) can0 0D3#0006C06400007F
(1634776336.036748) can0 0D4#0000000000000000
(1634776336.037003) can0 142#8426000000000000
(1634776336.037330) can0 018#FF91700000000020
(1634776336.037537) can0 360#00004040DA000100
(1634776336.037712) can0 361#060900D82F607A6B
(1634776336.037968) can0 370#00002301000D0000
(1634776336.045126) can0 140#0009004000001501
(1634776336.045360) can0 141#8426D3290080BE08
(1634776336.045604) can0 142#8426000000000000
(1634776336.045860) can0 144#C000005526A4A000
(1634776336.046078) can0 152#F027000000010800
(1634776336.047134) can0 156#0080000000000000
(1634776336.047375) can0 018#FF91700200000022
(1634776336.055144) can0 140#000A004000001501
(1634776336.055376) can0 141#8426D3290080BE08
(1634776336.055620) can0 142#8426000000000000
(1634776336.055879) can0 0D0#510000000000FFFF
(1634776336.056000) can0 0D1#00000000
(1634776336.056291) can0 0D2#0000FFFF00000000
(1634776336.056516) can0 0D3#0006C064000080
(1634776336.056779) can0 0D4#0000000000000000
(1634776336.057187) can0 018#FF91700400000024
(1634776336.063913) can0 156#0080000000000000
(1634776336.065128) can0 140#000B004000001501
(1634776336.065362) can0 141#8426D3290080BE08
(1634776336.065606) can0 142#8426000000000000
(1634776336.065862) can0 144#C000005526A4A000
(1634776336.066081) can0 152#F037000000010800
(1634776336.067186) can0 018#FF91700600000026
(1634776336.075144) can0 140#000C004000001501
(1634776336.075377) can0 141#8426D3290080BE08
(1634776336.075621) can0 142#8426000000000000
(1634776336.075879) can0 0D0#510000000000FFFF
(1634776336.075998) can0 0D1#00000000
(1634776336.076292) can0 0D2#0000FFFF00000000
(1634776336.076514) can0 0D3#0006C064000081
(1634776336.076780) can0 0D4#0000000000000000
(1634776336.077181) can0 018#FF91700800000028
(1634776336.083878) can0 156#0080000000000000
(1634776336.085128) can0 140#000D004000001501
(1634776336.085362) can0 141#8426D3290080BE08
(1634776336.085605) can0 142#8426000000000000
(1634776336.085874) can0 144#C000005526A4A000
(1634776336.086080) can0 152#F047000000010800
(1634776336.086330) can0 360#00004040DA000100
(1634776336.086565) can0 361#060900D820407A6B
(1634776336.086829) can0 370#00002301000E0000
(1634776336.087180) can0 018#FF91700A0000002A
(1634776336.095084) can0 282#77224B8080012000
(1634776336.095329) can0 140#000E004000001501
(1634776336.095563) can0 141#8426D3290080BE08
(1634776336.095830) can0 0D0#510000000000FFFF
(1634776336.095991) can0 0D1#00000000
(1634776336.096234) can0 0D2#0000FFFF00000000
(1634776336.096463) can0 0D3#0006C064000082
(1634776336.096709) can0 0D4#0000000000000000
(1634776336.096967) can0 142#8426000000000000
(1634776336.097191) can0 018#FF91700C0000002C
(1634776336.105134) can0 140#000F004000001501
(1634776336.105366) can0 141#8426D3290080BE08
(1634776336.105612) can0 142#8426000000000000
(1634776336.105868) can0 144#C000005526A4A000
(1634776336.106087) can0 152#F057000000010800
(1634776336.107100) can0 156#0080000000000000
(1634776336.107328) can0 018#FF91700E0000002E
(1634776336.113709) can0 442#4002000000000000
(1634776336.115147) can0 140#0000004000001501
(1634776336.115381) can0 141#8426D3290080BE08
(1634776336.115629) can0 0D0#510000000000FFFF
(1634776336.115813) can0 0D1#00000000
(1634776336.116048) can0 0D2#0000FFFF00000000
(1634776336.116272) can0 0D3#0006C064000083
(1634776336.116522) can0 0D4#0000000000000000
(1634776336.116784) can0 142#8426000000000000
(1634776336.117176) can0 018#FF91700000000020
(1634776336.121305) can0 372#0070010000000000
(1634776336.123877) can0 156#0080000000000000
(1634776336.125129) can0 140#0001004000001501
(1634776336.125363) can0 141#8426D3290080BE08
(1634776336.125607) can0 142#8426000000000000
(1634776336.125863) can0 144#C000005526A4A000
(1634776336.126082) can0 152#F067000000010800
(1634776336.127169) can0 018#FF91700200000022
(1634776336.135149) can0 140#0002004000001501
(1634776336.135382) can0 141#8426D3290080BE08
(1634776336.135630) can0 0D0#510000000000FFFF
(1634776336.135820) can0 0D1#00000000
(1634776336.136047) can0 0D2#0000FFFF00000000
(1634776336.136270) can0 0D3#0006C064000084
(1634776336.136521) can0 0D4#0000000000000000
(1634776336.136784) can0 142#8426000000000000
(1634776336.137001) can0 360#00004040DA000100
(1634776336.137249) can0 018#FF91700400000024
(1634776336.137481) can0 361#060900D821607A6B
(1634776336.137727) can0 370#00002301000F0000
(1634776336.144003) can0 156#0080000000000000
(1634776336.145130) can0 140#0003004000001501
(1634776336.145360) can0 141#8426D3290080BE08
(1634776336.145603) can0 142#8426000000000000
(1634776336.145860) can0 144#C000005526A4A000
(1634776336.146079) can0 152#F077000000010800
(1634776336.147157) can0 018#FF91700600000026
(1634776336.155054) can0 282#77324B8080012000
(1634776336.155285) can0 140#0004004000001501
(1634776336.155519) can0 141#8426D3290080BE08
(1634776336.155787) can0 0D0#510000000000FFFF
(1634776336.155967) can0 0D1#00000000
(1634776336.156192) can0 0D2#0000FFFF00000000
(1634776336.156412) can0 0D3#0006C064000085
(1634776336.156660) can0 0D4#0000000000000000
(1634776336.156911) can0 142#8426000000000000
(1634776336.157140) can0 63B#00001A7B000028E9
(1634776336.157380) can0 018#FF91700800000028
(1634776336.165131) can0 140#0005004000001501
(1634776336.165363) can0 141#8426D3290080BE08
(1634776336.165607) can0 142#8426000000000000
(1634776336.165866) can0 144#C000005526A4A000
(1634776336.166085) can0 152#F087000000010800
(1634776336.167043) can0 156#0080000000000000
(1634776336.167286) can0 018#FF91700A0000002A
(1634776336.175149) can0 140#0006004000001501
(1634776336.175382) can0 141#8426D3290080BE08
(1634776336.175631) can0 0D0#510000000000FFFF
(1634776336.175819) can0 0D1#00000000
(1634776336.176046) can0 0D2#0000FFFF00000000
(1634776336.176273) can0 0D3#0006C064000086
(1634776336.176523) can0 0D4#0000000000000000
(1634776336.176786) can0 142#8426000000000000
(1634776336.177151) can0 018#FF91700C0000002C
(1634776336.183818) can0 156#0080000000000000
(1634776336.185132) can0 140#0007004000001501
(1634776336.185366) can0 141#8426D3290080BE08
(1634776336.185609) can0 142#8426000000000000
(1634776336.185878) can0 144#C000005526A4A000
(1634776336.186082) can0 152#F097000000010800
(1634776336.186333) can0 360#00004040DA000100
(1634776336.186566) can0 361#060900D822507A6B
(1634776336.187147) can0 018#FF91700E0000002E
(1634776336.187394) can0 370#0000230100000000
(1634776336.195247) can0 140#0008004000001501
(1634776336.195479) can0 141#8426D3290080BE08
(1634776336.195727) can0 0D0#510000000000FFFF
(1634776336.195913) can0 0D1#00000000
(1634776336.196150) can0 0D2#0000FFFF00000000
(1634776336.196367) can0 0D3#0006C064000087
(1634776336.196623) can0 0D4#0000000000000000
(1634776336.196880) can0 142#8426000000000000
(1634776336.197152) can0 018#FF91700000000020
(1634776336.197493) can0 4C8#0900000000000000
(1634776336.203788) can0 156#0080000000000000
(1634776336.205146) can0 140#0009004000001501
(1634776336.205364) can0 141#8426D3290080BE08
(1634776336.205612) can0 142#8426000000000000
(1634776336.205870) can0 144#C000005526A4A000
(1634776336.206092) can0 440#4202000000000000
(1634776336.207145) can0 018#FF91700200000022
(1634776336.208915) can0 152#F0A7000000010800
(1634776336.215016) can0 282#77424B8080012000
(1634776336.215254) can0 140#000A004000001501
(1634776336.215480) can0 141#8426D3290080BE08
(1634776336.215722) can0 0D0#510000000000FFFF
(1634776336.215915) can0 0D1#00000000
(1634776336.216145) can0 0D2#0000FFFF00000000
(1634776336.216366) can0 0D3#0006C064000088
(1634776336.216613) can0 0D4#0000000000000000
(1634776336.216875) can0 142#8426000000000000
(1634776336.217140) can0 018#FF91700400000024
(1634776336.221304) can0 372#0080010000000000
(1634776336.225147) can0 140#000B004000001501
(1634776336.225369) can0 141#8426D3290080BE08
(1634776336.225614) can0 142#8426000000000000
(1634776336.225869) can0 144#C000005526A4A000
(1634776336.226095) can0 152#F0B7000000010800
(1634776336.227004) can0 156#0080000000000000
(1634776336.227240) can0 018#FF91700600000026
(1634776336.235166) can0 140#000C004000001501
(1634776336.235380) can0 141#8426D3290080BE08
(1634776336.235634) can0 0D0#510000000000FFFF
(1634776336.235824) can0 0D1#00000000
(1634776336.236061) can0 0D2#0000FFFF00000000
(1634776336.236283) can0 0D3#0006C064000089
(1634776336.236528) can0 0D4#0000000000000000
(1634776336.236791) can0 142#8426000000000000
(1634776336.237013) can0 360#00004040DA000100
(1634776336.237254) can0 018#FF91700800000028
(1634776336.237488) can0 361#060900D823407A6C
(1634776336.238074) can0 370#0000230100010000
(1634776336.243938) can0 156#0080000000000000
(1634776336.245163) can0 140#000D004000001501
(1634776336.245365) can0 141#8426D3290080BE08
(1634776336.245612) can0 142#8426000000000000
(1634776336.245870) can0 144#C000005526A4A000
(1634776336.246092) can0 152#F0C7000000010800
(1634776336.247132) can0 018#FF91700A0000002A
(1634776336.255165) can0 140#000E004000001501
(1634776336.255379) can0 141#8426D3290080BE08
(1634776336.255633) can0 0D0#510000000000FFFF
(1634776336.255819) can0 0D1#00000000
(1634776336.256054) can0 0D2#0000FFFF00000000
(1634776336.256276) can0 0D3#0006C06400008A
(1634776336.256526) can0 0D4#0000000000000000
(1634776336.256786) can0 142#8426000000000000
(1634776336.257127) can0 018#FF91700C0000002C
(1634776336.263731) can0 156#0080000000000000
(1634776336.265139) can0 140#000F004000001501
(1634776336.265372) can0 141#8426D3290080BE08
(1634776336.265616) can0 142#8426000000000000
(1634776336.265870) can0 144#C000005526A4A000
(1634776336.266091) can0 152#F0D7000000010800
(1634776336.267128) can0 018#FF91700E0000002E
(1634776336.275083) can0 282#77524B8080012000
(1634776336.275221) can0 140#0000004000001501
(1634776336.275447) can0 141#8426D3290080BE08
(1634776336.275693) can0 0D0#510000000000FFFF
(1634776336.275918) can0 0D1#00000000
(1634776336.276101) can0 0D2#0000FFFF00000000
(1634776336.276325) can0 0D3#0006C06400008B
(1634776336.276573) can0 0D4#0000000000000000
(1634776336.276869) can0 142#8426000000000000
(1634776336.277038) can0 6E2#A2800054585858FE
(1634776336.277315) can0 018#FF91700000000020
(1634776336.285183) can0 140#0001004000001501
(1634776336.285352) can0 141#8426D3290080BE08
(1634776336.285612) can0 142#8426000000000000
(1634776336.285909) can0 144#C000005526A4A000
(1634776336.286079) can0 152#F0E7000000010800
(1634776336.286324) can0 360#00004040DA000100
(1634776336.286562) can0 361#060900D824507A6B
(1634776336.286974) can0 156#0080000000000000
(1634776336.287191) can0 018#FF91700200000022
(1634776336.288373) can0 370#0000230100020000
(1634776336.295135) can0 140#0002004000001501
(1634776336.295368) can0 141#8426D3290080BE08
(1634776336.295612) can0 142#8426000000000000
(1634776336.295860) can0 0D0#510000000000FFFF
(1634776336.296034) can0 0D1#00000000
(1634776336.296284) can0 0D2#0000FFFF00000000
(1634776336.296500) can0 0D3#0006C06400008C
(1634776336.296750) can0 0D4#0000000000000000
(1634776336.297094) can0 018#FF91700400000024
(1634776336.303608) can0 442#4002000000000000
(1634776336.303854) can0 156#0080000000000000
(1634776336.305116) can0 140#0003004000001501
(1634776336.305348) can0 141#8426D3290080BE08
(1634776336.305592) can0 142#8426000000000000
(1634776336.305846) can0 144#C000005526A4A000
(1634776336.306069) can0 152#F0F7000000010800
(1634776336.307091) can0 018#FF91700600000026
(1634776336.315133) can0 140#0004004000001501
(1634776336.315366) can0 141#8426D3290080BE08
(1634776336.315613) can0 0D0#510000000000FFFF
(1634776336.315798) can0 0D1#00000000
(1634776336.316035) can0 0D2#0000FFFF00000000
(1634776336.316256) can0 0D3#0006C06400008D
(1634776336.316506) can0 0D4#0000000000000000
(1634776336.316750) can0 142#8426000000000000
(1634776336.317086) can0 018#FF91700800000028
(1634776336.321273) can0 372#0090010000000000
(1634776336.323743) can0 156#0080000000000000
(1634776336.325117) can0 140#0005004000001501
(1634776336.325350) can0 141#8426D3290080BE08
(1634776336.325594) can0 142#8426000000000000
(1634776336.325844) can0 144#C000005526A4A000
(1634776336.326073) can0 152#F007000000010800
(1634776336.327087) can0 018#FF91700A0000002A
(1634776336.334898) can0 282#77624B8080012000
(1634776336.335137) can0 140#0006004000001501
(1634776336.335370) can0 141#8426D3290080BE08
(1634776336.335618) can0 0D0#510000000000FFFF
(1634776336.335804) can0 0D1#00000000
(1634776336.336042) can0 0D2#0000FFFF00000000
(1634776336.336259) can0 0D3#0006C06400008E
(1634776336.336509) can0 0D4#0000000000000000
(1634776336.336753) can0 142#8426000000000000
(1634776336.336997) can0 360#00004040DA000100
(1634776336.337237) can0 018#FF91700C0000002C
(1634776336.337474) can0 361#060900D825707A6B
(1634776336.339136) can0 370#0000230100030000
(1634776336.345118) can0 140#0007004000001501
(1634776336.345350) can0 141#8426D3290080BE08
(1634776336.345595) can0 142#8426000000000000
(1634776336.345845) can0 144#C000005526A4A000
(1634776336.346072) can0 152#F017000000010800
(1634776336.346901) can0 156#0080000000000000
(1634776336.347127) can0 018#FF91700E0000002E
(1634776336.355233) can0 140#0008004000001501
(1634776336.355465) can0 141#8426D3290080BE08
(1634776336.355713) can0 0D0#510000000000FFFF
(1634776336.355882) can0 0D1#00000000
(1634776336.356136) can0 0D2#0000FFFF00000000
(1634776336.356353) can0 0D3#0006C06400008F
(1634776336.356604) can0 0D4#0000000000000000
(1634776336.356851) can0 142#8426000000000000
(1634776336.357096) can0 018#FF91700000000020
(1634776336.363619) can0 156#0080000000000000
(1634776336.365199) can0 140#0009004000001501
(1634776336.365368) can0 141#8426D3290080BE08
(1634776336.365597) can0 142#8426000000000000
(1634776336.365847) can0 144#C000005526A4A000
(1634776336.366074) can0 152#F027000000010800
(1634776336.367074) can0 018#FF91700200000022
(1634776336.375135) can0 140#000A004000001501
(1634776336.375369) can0 141#8426D3290080BE08
(1634776336.375678) can0 0D0#510000000000FFFF
(1634776336.375771) can0 0D1#00000000
(1634776336.376039) can0 0D2#0000FFFF00000000
(1634776336.376262) can0 0D3#0006C064000090
(1634776336.376512) can0 0D4#0000000000000000
(1634776336.376770) can0 142#8426000000000000
(1634776336.377070) can0 018#FF91700400000024
(1634776336.383622) can0 156#0080000000000000
(1634776336.385120) can0 140#000B004000001501
(1634776336.385355) can0 141#8426D3290080BE08
(1634776336.385598) can0 142#8426000000000000
(1634776336.385978) can0 144#C000005526A4A000
(1634776336.386061) can0 152#F037000000010800
(1634776336.386316) can0 360#00004040DA000100
(1634776336.386557) can0 361#060900D826507A6B
(1634776336.387066) can0 018#FF91700600000026
(1634776336.389459) can0 370#0000230100040000
(1634776336.394882) can0 282#77724B8080012000
(1634776336.395156) can0 140#000C004000001501
(1634776336.395390) can0 141#8426D3290080BE08
(1634776336.395639) can0 0D0#510000000000FFFF
(1634776336.395825) can0 0D1#00000000
(1634776336.396161) can0 0D2#0000FFFF00000000
(1634776336.396357) can0 0D3#0006C064000091
(1634776336.396525) can0 0D4#0000000000000000
(1634776336.396789) can0 142#8426000000000000
(1634776336.397017) can0 440#4202000000000000
(1634776336.397263) can0 018#FF91700800000028
(1634776336.405143) can0 140#000D004000001501
(1634776336.405375) can0 141#8426D3290080BE08
(1634776336.405619) can0 142#8426000000000000
(1634776336.405873) can0 144#C000005526A4A000
(1634776336.406093) can0 152#F047000000010800
(1634776336.406876) can0 156#0080000000000000
(1634776336.407101) can0 018#FF91700A0000002A
(1634776336.415159) can0 140#000E004000001501
(1634776336.415392) can0 141#8426D3290080BE08
(1634776336.415640) can0 0D0#510000000000FFFF
(1634776336.415828) can0 0D1#00000000
(1634776336.416061) can0 0D2#0000FFFF00000000
(1634776336.416282) can0 0D3#0006C064000092
(1634776336.416531) can0 0D4#0000000000000000
(1634776336.416829) can0 142#8426000000000000
(1634776336.417131) can0 018#FF91700C0000002C
(1634776336.421282) can0 372#00A0010000000000
(1634776336.423685) can0 156#0080000000000000
(1634776336.425146) can0 140#000F004000001501
(1634776336.425380) can0 141#8426D3290080BE08
(1634776336.425624) can0 142#8426000000000000
(1634776336.425875) can0 144#C000005526A4A000
(1634776336.426094) can0 152#F057000000010800
(1634776336.427088) can0 018#FF91700E0000002E
(1634776336.435162) can0 140#0000004000001501
(1634776336.435396) can0 141#8426D3290080BE08
(1634776336.435640) can0 142#8426000000000000
(1634776336.435898) can0 0D0#510000000000FFFF
(1634776336.436062) can0 0D1#00000000
(1634776336.436310) can0 0D2#0000FFFF00000000
(1634776336.436531) can0 0D3#0006C064000093
(1634776336.436787) can0 0D4#0000000000000000
(1634776336.437024) can0 360#00004040DA000100
(1634776336.437271) can0 018#FF91700000000020
(1634776336.437503) can0 361#060900D827307A6B
(1634776336.437869) can0 6E1#A180000000700000
(1634776336.440216) can0 370#0000230100050000
(1634776336.443858) can0 156#0080000000000000
(1634776336.445143) can0 140#0001004000001501
(1634776336.445377) can0 141#8426D3290080BE08
(1634776336.445621) can0 142#8426000000000000
(1634776336.445875) can0 144#C000005526A4A000
(1634776336.446095) can0 152#F067000000010800
(1634776336.447071) can0 018#FF91700200000022
(1634776336.454877) can0 282#77824B8080012000
(1634776336.455164) can0 140#0002004000001501
(1634776336.455396) can0 141#8426D3290080BE08
(1634776336.455645) can0 0D0#510000000000FFFF
(1634776336.455831) can0 0D1#00000000
(1634776336.456064) can0 0D2#0000FFFF00000000
(1634776336.456287) can0 0D3#0006C064000094
(1634776336.456537) can0 0D4#0000000000000000
(1634776336.456786) can0 142#8426000000000000
(1634776336.457066) can0 018#FF91700400000024
(1634776336.465145) can0 140#0003004000001501
(1634776336.465379) can0 141#8426D3290080BE08
(1634776336.465622) can0 142#8426000000000000
(1634776336.465874) can0 144#C000005526A4A000
(1634776336.466094) can0 152#F077000000010800
(1634776336.466875) can0 156#0080000000000000
(1634776336.467112) can0 018#FF91700600000026
(1634776336.475162) can0 140#0004004000001501
(1634776336.475395) can0 141#8426D3290080BE08
(1634776336.475644) can0 0D0#510000000000FFFF
(1634776336.475830) can0 0D1#00000000
(1634776336.476063) can0 0D2#0000FFFF00000000
(1634776336.476286) can0 0D3#0006C064000095
(1634776336.476536) can0 0D4#0000000000000000
(1634776336.476785) can0 142#8426000000000000
(1634776336.477059) can0 018#FF91700800000028
(1634776336.483609) can0 156#0080000000000000
(1634776336.485144) can0 140#0005004000001501
(1634776336.485378) can0 141#8426D3290080BE08
(1634776336.485622) can0 142#8426000000000000
(1634776336.485903) can0 144#C000005526A4A000
(1634776336.486096) can0 152#F087000000010800
(1634776336.486345) can0 360#00004040DA000100
(1634776336.486579) can0 361#060900D828807A6B
(1634776336.487061) can0 018#FF91700A0000002A
(1634776336.490530) can0 370#0000230100060000
(1634776336.493649) can0 442#4002000000000000
(1634776336.495164) can0 140#0006004000001501
(1634776336.495397) can0 141#8426D3290080BE08
(1634776336.495641) can0 142#8426000000000000
(1634776336.495908) can0 0D0#510000000000FFFF
(1634776336.496054) can0 0D1#00000000
(1634776336.496312) can0 0D2#0000FFFF00000000
(1634776336.496533) can0 0D3#0006C064000096
(1634776336.496786) can0 0D4#0000000000000000
(1634776336.497055) can0 018#FF91700C0000002C
(1634776336.503637) can0 156#0080000000000000
(1634776336.505145) can0 140#0007004000001501
(1634776336.505379) can0 141#8426D3290080BE08
(1634776336.505623) can0 142#8426000000000000
(1634776336.505875) can0 144#C000005526A4A000
(1634776336.506097) can0 152#F097000000010800
(1634776336.507065) can0 018#FF91700E0000002E
(1634776336.514784) can0 282#77924B8080012000
(1634776336.515260) can0 140#0008004000001501
(1634776336.515494) can0 141#8426D3290080BE08
(1634776336.515742) can0 0D0#510000000000FFFF
(1634776336.515941) can0 0D1#00000000
(1634776336.516165) can0 0D2#0000FFFF00000000
(1634776336.516386) can0 0D3#0006C064000097
(1634776336.516632) can0 0D4#0000000000000000
(1634776336.516874) can0 142#8426000000000000
(1634776336.517123) can0 018#FF91700000000020
(1634776336.521274) can0 372#00B0010000000000
(1634776336.525146) can0 140#0009004000001501
(1634776336.525379) can0 141#8426D3290080BE08
(1634776336.525623) can0 142#8426000000000000
(1634776336.525874) can0 144#C000005526A4A000
(1634776336.526096) can0 152#F0A7000000010800
(1634776336.526786) can0 156#0080000000000000
(1634776336.527047) can0 018#FF91700200000022
(1634776336.535163) can0 140#000A004000001501
(1634776336.535397) can0 141#8426D3290080BE08
(1634776336.535645) can0 0D0#510000000000FFFF
(1634776336.535830) can0 0D1#00000000
(1634776336.536061) can0 0D2#0000FFFF00000000
(1634776336.536285) can0 0D3#0006C064000098
(1634776336.536535) can0 0D4#0000000000000000
(1634776336.536786) can0 142#8426000000000000
(1634776336.537023) can0 360#00004040DA000100
(1634776336.537263) can0 018#FF91700400000024
(1634776336.537496) can0 361#060900D829607A6B
(1634776336.541116) can0 370#0000230100070000
(1634776336.543803) can0 156#0080000000000000
(1634776336.545149) can0 140#000B004000001501
(1634776336.545383) can0 141#8426D3290080BE08
(1634776336.545626) can0 142#8426000000000000
(1634776336.545874) can0 144#C000005526A4A000
(1634776336.546097) can0 152#F0B7000000010800
(1634776336.547041) can0 018#FF91700600000026
(1634776336.555165) can0 140#000C004000001501
(1634776336.555398) can0 141#8426D3290080BE08
(1634776336.555646) can0 0D0#510000000000FFFF
(1634776336.555830) can0 0D1#00000000
(1634776336.556062) can0 0D2#0000FFFF00000000
(1634776336.556287) can0 0D3#0006C064000099
(1634776336.556537) can0 0D4#0000000000000000
(1634776336.556785) can0 142#8426000000000000
(1634776336.557037) can0 018#FF91700800000028
(1634776336.563586) can0 156#0080000000000000
(1634776336.565149) can0 140#000D004000001501
(1634776336.565383) can0 141#8426D3290080BE08
(1634776336.565627) can0 142#8426000000000000
(1634776336.565873) can0 144#C000005526A4A000
(1634776336.566110) can0 152#F0C7000000010800
(1634776336.567035) can0 018#FF91700A0000002A
(1634776336.574732) can0 282#77A24B8080012000
(1634776336.575164) can0 140#000E004000001501
(1634776336.575398) can0 141#8426D3290080BE08
(1634776336.575642) can0 142#8426000000000000
(1634776336.575906) can0 0D0#510000000000FFFF
(1634776336.576052) can0 0D1#00000000
(1634776336.576314) can0 0D2#0000FFFF00000000
(1634776336.576537) can0 0D3#0006C06400009A
(1634776336.576803) can0 0D4#0000000000000000
(1634776336.577034) can0 018#FF91700C0000002C
(1634776336.585154) can0 140#000F004000001501
(1634776336.585387) can0 141#8426D3290080BE08
(1634776336.585631) can0 142#8426000000000000
(1634776336.585874) can0 144#C000005526A4A000
(1634776336.586106) can0 360#00004040DA000100
(1634776336.586349) can0 361#060900D82A307A6B
(1634776336.586597) can0 440#4202000000000000
(1634776336.586870) can0 156#0080000000000000
(1634776336.587094) can0 018#FF91700E0000002E
(1634776336.590908) can0 152#F0D7000000010800
(1634776336.591574) can0 370#0000230100080000
(1634776336.595171) can0 140#0000004000001501
(1634776336.595403) can0 141#8426D3290080BE08
(1634776336.595646) can0 0D0#510000000000FFFF
(1634776336.595840) can0 0D1#00000000
(1634776336.596067) can0 0D2#0000FFFF00000000
(1634776336.596296) can0 0D3#0006C06400009B
(1634776336.596545) can0 0D4#0000000000000000
(1634776336.596809) can0 142#8426000000000000
(1634776336.597028) can0 018#FF91700000000020
(1634776336.603676) can0 156#0080000000000000
(1634776336.605150) can0 140#0001004000001501
(1634776336.605384) can0 141#8426D3290080BE08
(1634776336.605628) can0 142#8426000000000000
(1634776336.605874) can0 144#C000005526A4A000
(1634776336.606112) can0 152#F0E7000000010800
(1634776336.607024) can0 018#FF91700200000022
(1634776336.615170) can0 140#0002004000001501
(1634776336.615403) can0 141#8426D3290080BE08
(1634776336.615651) can0 0D0#510000000000FFFF
(1634776336.615837) can0 0D1#00000000
(1634776336.616067) can0 0D2#0000FFFF00000000
(1634776336.616294) can0 0D3#0006C06400009C
(1634776336.616544) can0 0D4#0000000000000000
(1634776336.616807) can0 142#8426000000000000
(1634776336.617025) can0 018#FF91700400000024
(1634776336.617278) can0 374#0000000100000000
(1634776336.621273) can0 372#00C0010000000000
(1634776336.623677) can0 156#0080000000000000
(1634776336.625152) can0 140#0003004000001501
(1634776336.625386) can0 141#8426D3290080BE08
(1634776336.625629) can0 142#8426000000000000
(1634776336.625874) can0 144#C000005526A4A000
(1634776336.626110) can0 152#F0F7000000010800
(1634776336.627016) can0 018#FF91700600000026
(1634776336.634805) can0 282#77B24B8080012000
(1634776336.635168) can0 140#0004004000001501
(1634776336.635402) can0 141#8426D3290080BE08
(1634776336.635646) can0 142#8426000000000000
(1634776336.635907) can0 0D0#510000000000FFFF
(1634776336.636073) can0 0D1#00000000
(1634776336.636317) can0 0D2#0000FFFF00000000
(1634776336.636538) can0 0D3#0006C06400009D
(1634776336.636805) can0 0D4#0000000000000000
(1634776336.637019) can0 018#FF91700800000028
(1634776336.637270) can0 360#00004040DA000100
(1634776336.637504) can0 361#060900D82B707A6B
(1634776336.637750) can0 375#0001000400000010
(1634776336.642170) can0 370#0000230100090000
(1634776336.645269) can0 140#0005004000001501
(1634776336.645375) can0 141#8426D3290080BE08
(1634776336.645631) can0 142#8426000000000000
(1634776336.645873) can0 144#C000005526A4A000
(1634776336.646111) can0 152#F007000000010800
(1634776336.646690) can0 156#0080000000000000
(1634776336.647011) can0 018#FF91700A0000002A
(1634776336.655171) can0 140#0006004000001501
(1634776336.655552) can0 141#8426D3290080BE08
(1634776336.655723) can0 0D0#510000000000FFFF
(1634776336.655841) can0 0D1#00000000
(1634776336.656073) can0 0D2#0000FFFF00000000
(1634776336.656297) can0 0D3#0006C06400009E
(1634776336.656545) can0 0D4#0000000000000000
(1634776336.656808) can0 142#8426000000000000
(1634776336.657030) can0 018#FF91700C0000002C
(1634776336.657266) can0 63B#00001A7B000028EE
(1634776336.663569) can0 156#0080000000000000
(1634776336.665152) can0 140#0007004000001501
(1634776336.665386) can0 141#8426D3290080BE08
(1634776336.665629) can0 142#8426000000000000
(1634776336.666017) can0 144#C000005526A4A000
(1634776336.666116) can0 152#F017000000010800
(1634776336.667018) can0 018#FF91700E0000002E
(1634776336.675268) can0 140#0008004000001501
(1634776336.675501) can0 141#8426D3290080BE08
(1634776336.675749) can0 0D0#510000000000FFFF
(1634776336.675930) can0 0D1#00000000
(1634776336.676310) can0 0D2#0000FFFF00000000
(1634776336.676481) can0 0D3#0006C06400009F
(1634776336.676626) can0 0D4#0000000000000000
(1634776336.676902) can0 142#8426000000000000
(1634776336.677133) can0 018#FF91700000000020
(1634776336.683402) can0 442#4002000000000000
(1634776336.683649) can0 156#0080000000000000
(1634776336.685154) can0 140#0009004000001501
(1634776336.685388) can0 141#8426D3290080BE08
(1634776336.685632) can0 142#8426000000000000
(1634776336.685873) can0 144#C000005526A4A000
(1634776336.686122) can0 152#F027000000010800
(1634776336.686362) can0 360#00004040DA000100
(1634776336.686691) can0 361#060900D82C607A6C
(1634776336.687001) can0 018#FF91700200000022
(1634776336.692621) can0 370#00002301000A0000
(1634776336.694649) can0 282#77C24B8080012000
(1634776336.695170) can0 140#000A004000001501
(1634776336.695404) can0 141#8426D3290080BE08
(1634776336.695652) can0 0D0#510000000000FFFF
(1634776336.695839) can0 0D1#00000000
(1634776336.696071) can0 0D2#0000FFFF00000000
(1634776336.696295) can0 0D3#0006C0640000A0
(1634776336.696545) can0 0D4#0000000000000000
(1634776336.696812) can0 142#8426000000000000
(1634776336.697104) can0 018#FF91700400000024
(1634776336.705158) can0 140#000B004000001501
(1634776336.705391) can0 141#8426D3290080BE08
(1634776336.705634) can0 142#8426000000000000
(1634776336.705873) can0 144#C000005526A4A000
(1634776336.706113) can0 152#F037000000010800
(1634776336.706645) can0 156#0080000000000000
(1634776336.706995) can0 018#FF91700600000026
(1634776336.715173) can0 140#000C004000001501
(1634776336.715406) can0 141#8426D3290080BE08
(1634776336.715654) can0 0D0#510000000000FFFF
(1634776336.715839) can0 0D1#00000000
(1634776336.716073) can0 0D2#0000FFFF00000000
(1634776336.716296) can0 0D3#0006C0640000A1
(1634776336.716546) can0 0D4#0000000000000000
(1634776336.716813) can0 142#8426000000000000
(1634776336.717028) can0 018#FF91700800000028
(1634776336.721261) can0 372#00D0010000000000
(1634776336.723499) can0 156#0080000000000000
(1634776336.725156) can0 140#000D004000001501
(1634776336.725390) can0 141#8426D3290080BE08
(1634776336.725633) can0 142#8426000000000000
(1634776336.725872) can0 144#C000005526A4A000
(1634776336.726114) can0 152#F047000000010800
(1634776336.726997) can0 018#FF91700A0000002A
(1634776336.735173) can0 140#000E004000001501
(1634776336.735406) can0 141#8426D3290080BE08
(1634776336.735655) can0 0D0#510000000000FFFF
(1634776336.735841) can0 0D1#00000000
(1634776336.736072) can0 0D2#0000FFFF00000000
(1634776336.736295) can0 0D3#0006C0640000A2
(1634776336.736545) can0 0D4#0000000000000000
(1634776336.736813) can0 142#8426000000000000
(1634776336.737027) can0 018#FF91700C0000002C
(1634776336.737274) can0 360#00004040DA000100
(1634776336.737508) can0 361#060900D82D507A6B
(1634776336.743154) can0 370#00002301000B0000
(1634776336.743557) can0 156#0080000000000000
(1634776336.745161) can0 140#000F004000001501
(1634776336.745395) can0 141#8426D3290080BE08
(1634776336.745639) can0 142#8426000000000000
(1634776336.745875) can0 144#C000005526A4A000
(1634776336.746118) can0 152#F057000000010800
(1634776336.746990) can0 018#FF91700E0000002E
(1634776336.754608) can0 282#77D24B8080012000
(1634776336.755176) can0 140#0000004000001501
(1634776336.755410) can0 141#8426D3290080BE08
(1634776336.755658) can0 0D0#510000000000FFFF
(1634776336.755844) can0 0D1#00000000
(1634776336.756075) can0 0D2#0000FFFF00000000
(1634776336.756299) can0 0D3#0006C0640000A3
(1634776336.756549) can0 0D4#0000000000000000
(1634776336.756816) can0 142#8426000000000000
(1634776336.757046) can0 018#FF91700000000020
(1634776336.765158) can0 140#0001004000001501
(1634776336.765390) can0 141#8426D3290080BE08
(1634776336.765634) can0 142#8426000000000000
(1634776336.765873) can0 144#C000005526A4A000
(1634776336.766113) can0 152#F067000000010800
(1634776336.766600) can0 156#0080000000000000
(1634776336.766989) can0 018#FF91700200000022
(1634776336.775178) can0 140#0002004000001501
(1634776336.775410) can0 141#8426D3290080BE08
(1634776336.775657) can0 0D0#510000000000FFFF
(1634776336.775842) can0 0D1#00000000
(1634776336.776076) can0 0D2#0000FFFF00000000
(1634776336.776299) can0 0D3#0006C0640000A4
(1634776336.776549) can0 0D4#0000000000000000
(1634776336.776815) can0 142#8426000000000000
(1634776336.777028) can0 018#FF91700400000024
(1634776336.777280) can0 440#4202000000000000
(1634776336.783452) can0 156#0080000000000000
(1634776336.785159) can0 140#0003004000001501
(1634776336.785393) can0 141#8426D3290080BE08
(1634776336.785637) can0 142#8426000000000000
(1634776336.785876) can0 144#C000005526A4A000
(1634776336.786127) can0 152#F077000000010800
(1634776336.786352) can0 360#00004040DA000100
(1634776336.786596) can0 361#060900D82E507A6C
(1634776336.786981) can0 018#FF91700600000026
(1634776336.793693) can0 370#00002301000C0000
(1634776336.795176) can0 140#0004004000001501
(1634776336.795410) can0 141#8426D3290080BE08
(1634776336.795657) can0 0D0#510000000000FFFF
(1634776336.795842) can0 0D1#00000000
(1634776336.796075) can0 0D2#0000FFFF00000000
(1634776336.796298) can0 0D3#0006C0640000A5
(1634776336.796548) can0 0D4#0000000000000000
(1634776336.796814) can0 142#8426000000000000
(1634776336.797029) can0 018#FF91700800000028
(1634776336.803466) can0 156#0080000000000000
(1634776336.805160) can0 140#0005004000001501
(1634776336.805394) can0 141#8426D3290080BE08
(1634776336.805638) can0 142#8426000000000000
(1634776336.805875) can0 144#C000005526A4A000
(1634776336.806116) can0 152#F087000000010800
(1634776336.806982) can0 018#FF91700A0000002A
(1634776336.814559) can0 282#77E24B8080012000
(1634776336.815176) can0 140#0006004000001501
(1634776336.815411) can0 141#8426D3290080BE08
(1634776336.815659) can0 0D0#510000000000FFFF
(1634776336.815845) can0 0D1#00000000
(1634776336.816077) can0 0D2#0000FFFF00000000
(1634776336.816304) can0 0D3#0006C0640000A6
(1634776336.816554) can0 0D4#0000000000000000
(1634776336.816817) can0 142#8426000000000000
(1634776336.817032) can0 018#FF91700C0000002C
(1634776336.821250) can0 372#00E0010000000000
(1634776336.825160) can0 140#0007004000001501
(1634776336.825393) can0 141#8426D3290080BE08
(1634776336.825637) can0 142#8426000000000000
(1634776336.825877) can0 144#C000005526A4A000
(1634776336.826115) can0 152#F097000000010800
(1634776336.826561) can0 156#0080000000000000
(1634776336.826969) can0 018#FF91700E0000002E
(1634776336.835275) can0 140#0008004000001501
(1634776336.835508) can0 141#8426D3290080BE08
(1634776336.835775) can0 0D0#510000000000FFFF
(1634776336.835955) can0 0D1#00000000
(1634776336.836179) can0 0D2#0000FFFF00000000
(1634776336.836402) can0 0D3#0006C0640000A7
(1634776336.836647) can0 0D4#0000000000000000
(1634776336.836905) can0 142#8426000000000000
(1634776336.837137) can0 018#FF91700000000020
(1634776336.837381) can0 360#00004040DA000100
(1634776336.837613) can0 361#060900D82F607A6B
(1634776336.841968) can0 4C6#0700000000000000
(1634776336.843459) can0 156#0080000000000000
(1634776336.844276) can0 370#00002301000D0000
(1634776336.845161) can0 140#0009004000001501
(1634776336.845395) can0 141#8426D3290080BE08
(1634776336.845639) can0 142#8426000000000000
(1634776336.845898) can0 144#C000005526A4A000
(1634776336.846120) can0 152#F0A7000000010800
(1634776336.846967) can0 018#FF91700200000022
(1634776336.855180) can0 140#000A004000001501
(1634776336.855413) can0 141#8426D3290080BE08
(1634776336.855661) can0 0D0#510000000000FFFF
(1634776336.855845) can0 0D1#00000000
(1634776336.856077) can0 0D2#0000FFFF00000000
(1634776336.856304) can0 0D3#0006C0640000A8
(1634776336.856553) can0 0D4#0000000000000000
(1634776336.856817) can0 142#8426000000000000
(1634776336.857028) can0 018#FF91700400000024
(1634776336.863288) can0 156#0080000000000000
(1634776336.865164) can0 140#000B004000001501
(1634776336.865398) can0 141#8426D3290080BE08
(1634776336.865642) can0 142#8426000000000000
(1634776336.865898) can0 144#C000005526A4A000
(1634776336.866121) can0 152#F0B7000000010800
(1634776336.866958) can0 018#FF91700600000026
(1634776336.873121) can0 442#4002000000000000
(1634776336.874513) can0 282#77F24B8080012000
(1634776336.875179) can0 140#000C004000001501
(1634776336.875413) can0 141#8426D3290080BE08
(1634776336.875661) can0 0D0#510000000000FFFF
(1634776336.875847) can0 0D1#00000000
(1634776336.876078) can0 0D2#0000FFFF00000000
(1634776336.876304) can0 0D3#0006C0640000A9
(1634776336.876554) can0 0D4#0000000000000000
(1634776336.876817) can0 142#8426000000000000
(1634776336.877032) can0 018#FF91700800000028
(1634776336.885165) can0 140#000D004000001501
(1634776336.885398) can0 141#8426D3290080BE08
(1634776336.885642) can0 142#8426000000000000
(1634776336.885897) can0 144#C000005526A4A000
(1634776336.886131) can0 152#F0C7000000010800
(1634776336.886357) can0 360#00004040DA000100
(1634776336.886610) can0 156#0080000000000000
(1634776336.886868) can0 361#060900D820607A6C
(1634776336.887081) can0 018#FF91700A0000002A
(1634776336.894781) can0 370#00002301000E0000
(1634776336.895180) can0 140#000E004000001501
(1634776336.895413) can0 141#8426D3290080BE08
(1634776336.895661) can0 0D0#510000000000FFFF
(1634776336.895847) can0 0D1#00000000
(1634776336.896079) can0 0D2#0000FFFF00000000
(1634776336.896303) can0 0D3#0006C0640000AA
(1634776336.896552) can0 0D4#0000000000000000
(1634776336.896815) can0 142#8426000000000000
(1634776336.897030) can0 018#FF91700C0000002C
(1634776336.903326) can0 156#0080000000000000
(1634776336.905169) can0 140#000F004000001501
(1634776336.905403) can0 141#8426D3290080BE08
(1634776336.905647) can0 142#8426000000000000
(1634776336.905902) can0 144#C000005526A4A000
(1634776336.906125) can0 152#F0D7000000010800
(1634776336.906947) can0 018#FF91700E0000002E
(1634776336.915185) can0 140#0000004000001501
(1634776336.915418) can0 141#8426D3290080BE08
(1634776336.915665) can0 0D0#510000000000FFFF
(1634776336.915852) can0 0D1#00000000
(1634776336.916085) can0 0D2#0000FFFF00000000
(1634776336.916309) can0 0D3#0006C0640000AB
(1634776336.916559) can0 0D4#0000000000000000
(1634776336.916822) can0 142#8426000000000000
(1634776336.917052) can0 018#FF91700000000020
(1634776336.921249) can0 372#00F0010000000000
(1634776336.923321) can0 156#0080000000000000
(1634776336.925305) can0 140#0001004000001501
(1634776336.925472) can0 141#8426D3290080BE08
(1634776336.925633) can0 142#8426000000000000
(1634776336.925873) can0 144#C000005526A4A000
(1634776336.926120) can0 152#F0E7000000010800
(1634776336.926944) can0 018#FF91700200000022
(1634776336.934471) can0 282#77024B8080012000
(1634776336.935182) can0 140#0002004000001501
(1634776336.935417) can0 141#8426D3290080BE08
(1634776336.935793) can0 0D0#510000000000FFFF
(1634776336.935924) can0 0D1#00000000
(1634776336.936082) can0 0D2#0000FFFF00000000
(1634776336.936305) can0 0D3#0006C0640000AC
(1634776336.936557) can0 0D4#0000000000000000
(1634776336.936820) can0 142#8426000000000000
(1634776336.937041) can0 018#FF91700400000024
(1634776336.937284) can0 360#00004040DA000100
(1634776336.937516) can0 361#060900D821407A6C
(1634776336.945166) can0 140#0003004000001501
(1634776336.945400) can0 141#8426D3290080BE08
(1634776336.945643) can0 142#8426000000000000
(1634776336.945967) can0 144#C000005526A4A000
(1634776336.946178) can0 152#F0F7000000010800
(1634776336.946441) can0 370#00002301000F0000
(1634776336.946703) can0 156#0080000000000000
(1634776336.947077) can0 018#FF91700600000026
(1634776336.955184) can0 140#0004004000001501
(1634776336.955417) can0 141#8426D3290080BE08
(1634776336.955664) can0 0D0#510000000000FFFF
(1634776336.955853) can0 0D1#00000000
(1634776336.956084) can0 0D2#0000FFFF00000000
(1634776336.956308) can0 0D3#0006C0640000AD
(1634776336.956558) can0 0D4#0000000000000000
(1634776336.956822) can0 142#8426000000000000
(1634776336.957036) can0 018#FF91700800000028
(1634776336.963200) can0 156#0080000000000000
(1634776336.965166) can0 140#0005004000001501
(1634776336.965400) can0 141#8426D3290080BE08
(1634776336.965644) can0 142#8426000000000000
(1634776336.965897) can0 144#C000005526A4A000
(1634776336.966130) can0 440#4202000000000000
(1634776336.966940) can0 018#FF91700A0000002A
(1634776336.969851) can0 152#F007000000010800
(1634776336.975185) can0 140#0006004000001501
(1634776336.975419) can0 141#8426D3290080BE08
(1634776336.975666) can0 0D0#510000000000FFFF
(1634776336.975852) can0 0D1#00000000
(1634776336.976085) can0 0D2#0000FFFF00000000
(1634776336.976310) can0 0D3#0006C0640000AE
(1634776336.976559) can0 0D4#0000000000000000
(1634776336.976824) can0 142#8426000000000000
(1634776336.977038) can0 018#FF91700C0000002C
(1634776336.983203) can0 156#0080000000000000
(1634776336.985166) can0 140#0007004000001501
(1634776336.985400) can0 141#8426D3290080BE08
(1634776336.985644) can0 142#8426000000000000
(1634776336.985897) can0 144#C000005526A4A000
(1634776336.986134) can0 152#F017000000010800
(1634776336.986362) can0 360#00004040DA000100
(1634776336.986601) can0 361#060900D822707A6B
(1634776336.986922) can0 018#FF91700E0000002E
(1634776336.994422) can0 282#77124B8080012000
(1634776336.995280) can0 140#0008004000001501
(1634776336.995511) can0 141#8426D3290080BE08
(1634776336.995780) can0 0D0#510000000000FFFF
(1634776336.995962) can0 0D1#00000000
(1634776336.996187) can0 0D2#0000FFFF00000000
(1634776336.996408) can0 0D3#0006C0640000AF
(1634776336.996655) can0 0D4#0000000000000000
(1634776336.996904) can0 142#8426000000000000
(1634776336.997145) can0 018#FF91700000000020
(1634776336.997391) can0 370#0000230100000000
(1634776336.997643) can0 4C1#0100000000000000
(1634776337.005169) can0 140#0009004000001501
(1634776337.005402) can0 141#8426D3290080BE08
(1634776337.005646) can0 142#8426000000000000
(1634776337.005901) can0 144#C000005526A4A000
(1634776337.006125) can0 152#F027000000010800
(1634776337.006423) can0 156#0080000000000000
(1634776337.006918) can0 018#FF91700200000022
(1634776337.015186) can0 140#000A004000001501
(1634776337.015420) can0 141#8426D3290080BE08
(1634776337.015668) can0 0D0#510000000000FFFF
(1634776337.015853) can0 0D1#00000000
(1634776337.016086) can0 0D2#0000FFFF00000000
(1634776337.016310) can0 0D3#0006C0640000B0
(1634776337.016561) can0 0D4#0000000000000000
(1634776337.016823) can0 142#8426000000000000
(1634776337.017038) can0 018#FF91700400000024
(1634776337.017290) can0 4C3#0300000000000000
(1634776337.021241) can0 372#0000010000000000
(1634776337.023194) can0 156#0080000000000000
(1634776337.025173) can0 140#000B004000001501
(1634776337.025407) can0 141#8426D3290080BE08
(1634776337.025650) can0 142#8426000000000000
(1634776337.025902) can0 144#C000005526A4A000
(1634776337.026129) can0 152#F037000000010800
(1634776337.026375) can0 4DD#1E00000000000000
(1634776337.026904) can0 018#FF91700600000026
(1634776337.035186) can0 140#000C004000001501
(1634776337.035419) can0 141#8426D3290080BE08
(1634776337.035667) can0 0D0#510000000000FFFF
(1634776337.035853) can0 0D1#00000000
(1634776337.036087) can0 0D2#0000FFFF00000000
(1634776337.036310) can0 0D3#0006C0640000B1
(1634776337.036561) can0 0D4#0000000000000000
(1634776337.036823) can0 142#8426000000000000
(1634776337.037037) can0 018#FF91700800000028
(1634776337.037289) can0 360#00004040DA000100
(1634776337.037523) can0 361#060900D823307A6C
(1634776337.043267) can0 156#0080000000000000
(1634776337.045170) can0 140#000D004000001501
(1634776337.045403) can0 141#8426D3290080BE08
(1634776337.045647) can0 142#8426000000000000
(1634776337.045901) can0 144#C000005526A4A000
(1634776337.046128) can0 152#F047000000010800
(1634776337.046393) can0 370#0000230100010000
(1634776337.046903) can0 018#FF91700A0000002A
(1634776337.054378) can0 282#77224B8080012000
(1634776337.055186) can0 140#000E004000001501
(1634776337.055421) can0 141#8426D3290080BE08
(1634776337.055669) can0 0D0#510000000000FFFF
(1634776337.055853) can0 0D1#00000000
(1634776337.056084) can0 0D2#0000FFFF00000000
(1634776337.056309) can0 0D3#0006C0640000B2
(1634776337.056560) can0 0D4#0000000000000000
(1634776337.056823) can0 142#8426000000000000
(1634776337.057039) can0 018#FF91700C0000002C
(1634776337.063034) can0 442#4002000000000000
(1634776337.065176) can0 140#000F004000001501
(1634776337.065408) can0 141#8426D3290080BE08
(1634776337.065652) can0 142#8426000000000000
(1634776337.065903) can0 144#C000005526A4A000
(1634776337.066131) can0 152#F057000000010800
(1634776337.066378) can0 156#0080000000000000
(1634776337.066900) can0 018#FF91700E0000002E
(1634776337.075190) can0 140#0000004000001501
(1634776337.075424) can0 141#8426D3290080BE08
(1634776337.075671) can0 0D0#510000000000FFFF
(1634776337.075854) can0 0D1#00000000
(1634776337.076086) can0 0D2#0000FFFF00000000
(1634776337.076312) can0 0D3#0006C0640000B3
(1634776337.076562) can0 0D4#0000000000000000
(1634776337.076826) can0 142#8426000000000000
(1634776337.077055) can0 018#FF91700000000020
(1634776337.083107) can0 156#0080000000000000
(1634776337.085171) can0 140#0001004000001501
(1634776337.085404) can0 141#8426D3290080BE08
(1634776337.085648) can0 142#8426000000000000
(1634776337.085904) can0 144#C000005526A4A000
(1634776337.086141) can0 152#F067000000010800
(1634776337.086379) can0 360#00004040DA000100
(1634776337.086606) can0 361#060900D824507A6B
(1634776337.086893) can0 018#FF91700200000022
(1634776337.095191) can0 140#0002004000001501
(1634776337.095425) can0 141#8426D3290080BE08
(1634776337.095673) can0 0D0#510000000000FFFF
(1634776337.095855) can0 0D1#00000000
(1634776337.096087) can0 0D2#0000FFFF00000000
(1634776337.096314) can0 0D3#0006C0640000B4
(1634776337.096564) can0 0D4#0000000000000000
(1634776337.096826) can0 142#8426000000000000
(1634776337.097055) can0 018#FF91700400000024
(1634776337.097293) can0 370#0000230100020000
(1634776337.103176) can0 156#0080000000000000
(1634776337.105172) can0 140#0003004000001501
(1634776337.105406) can0 141#8426D3290080BE08
(1634776337.105650) can0 142#8426000000000000
(1634776337.105902) can0 144#C000005526A4A000
(1634776337.106128) can0 152#F077000000010800
(1634776337.106873) can0 018#FF91700600000026
(1634776337.114334) can0 282#77324B8080012000
(1634776337.115189) can0 140#0004004000001501
(1634776337.115423) can0 141#8426D3290080BE08
(1634776337.115672) can0 0D0#510000000000FFFF
(1634776337.115854) can0 0D1#00000000
(1634776337.116089) can0 0D2#0000FFFF00000000
(1634776337.116313) can0 0D3#0006C0640000B5
(1634776337.116562) can0 0D4#0000000000000000
(1634776337.116825) can0 142#8426000000000000
(1634776337.117038) can0 018#FF91700800000028
(1634776337.121229) can0 372#0010010000000000
(1634776337.125174) can0 140#0005004000001501
(1634776337.125408) can0 141#8426D3290080BE08
(1634776337.125653) can0 142#8426000000000000
(1634776337.125902) can0 144#C000005526A4A000
(1634776337.126130) can0 152#F087000000010800
(1634776337.126378) can0 156#0080000000000000
(1634776337.126870) can0 018#FF91700A0000002A
(1634776337.135193) can0 140#0006004000001501
(1634776337.135427) can0 141#8426D3290080BE08
(1634776337.135675) can0 0D0#510000000000FFFF
(1634776337.135857) can0 0D1#00000000
(1634776337.136092) can0 0D2#0000FFFF00000000
(1634776337.136315) can0 0D3#0006C0640000B6
(1634776337.136565) can0 0D4#0000000000000000
(1634776337.136826) can0 142#8426000000000000
(1634776337.137055) can0 018#FF91700C0000002C
(1634776337.137294) can0 360#00004040DA000100
(1634776337.137528) can0 361#060900D825707A6C
(1634776337.143199) can0 156#0080000000000000
(1634776337.145175) can0 140#0007004000001501
(1634776337.145409) can0 141#8426D3290080BE08
(1634776337.145653) can0 142#8426000000000000
(1634776337.145904) can0 144#C000005526A4A000
(1634776337.146131) can0 152#F097000000010800
(1634776337.146872) can0 018#FF91700E0000002E
(1634776337.147471) can0 370#0000230100030000
(1634776337.155288) can0 140#0008004000001501
(1634776337.155535) can0 0D0#510000000000FFFF
(1634776337.155701) can0 0D1#00000000
(1634776337.155972) can0 0D2#0000FFFF00000000
(1634776337.156178) can0 0D3#0006C0640000B7
(1634776337.156430) can0 0D4#0000000000000000
(1634776337.156664) can0 141#8426D3290080BE08
(1634776337.156925) can0 018#FF91700000000020
(1634776337.157155) can0 142#8426000000000000
(1634776337.157403) can0 440#4202000000000000
(1634776337.159285) can0 63B#00001A7B000028F3
(1634776337.163156) can0 156#0080000000000000
(1634776337.165175) can0 140#0009004000001501
(1634776337.165408) can0 141#8426D3290080BE08
(1634776337.165652) can0 142#8426000000000000
(1634776337.165901) can0 144#C000005526A4A000
(1634776337.166128) can0 152#F0A7000000010800
(1634776337.166869) can0 018#FF91700200000022
(1634776337.174290) can0 282#77424B8080012000
(1634776337.175191) can0 140#000A004000001501
(1634776337.175426) can0 141#8426D3290080BE08
(1634776337.175674) can0 0D0#510000000000FFFF
(1634776337.175856) can0 0D1#00000000
(1634776337.176090) can0 0D2#0000FFFF00000000
(1634776337.176317) can0 0D3#0006C0640000B8
(1634776337.176567) can0 0D4#0000000000000000
(1634776337.176830) can0 142#8426000000000000
(1634776337.177046) can0 018#FF91700400000024
(1634776337.185178) can0 140#000B004000001501
(1634776337.185413) can0 141#8426D3290080BE08
(1634776337.185656) can0 142#8426000000000000
(1634776337.185902) can0 144#C000005526A4A000
(1634776337.186146) can0 152#F0B7000000010800
(1634776337.186384) can0 156#0080000000000000
(1634776337.186626) can0 360#00004040DA000100
(1634776337.186867) can0 018#FF91700600000026
(1634776337.187113) can0 361#060900D826607A6B
(1634776337.195194) can0 140#000C004000001501
(1634776337.195428) can0 141#8426D3290080BE08
(1634776337.195676) can0 0D0#510000000000FFFF
(1634776337.195861) can0 0D1#00000000
(1634776337.196092) can0 0D2#0000FFFF00000000
(1634776337.196319) can0 0D3#0006C0640000B9
(1634776337.196568) can0 0D4#0000000000000000
(1634776337.196832) can0 142#8426000000000000
(1634776337.197048) can0 018#FF91700800000028
(1634776337.198237) can0 370#0000230100040000
(1634776337.203080) can0 156#0080000000000000
(1634776337.205176) can0 140#000D004000001501
(1634776337.205411) can0 141#8426D3290080BE08
(1634776337.205654) can0 142#8426000000000000
(1634776337.205902) can0 144#C000005526A4A000
(1634776337.206131) can0 152#F0C7000000010800
(1634776337.206860) can0 018#FF91700A0000002A
(1634776337.208132) can0 4C8#0900000000000000
(1634776337.215194) can0 140#000E004000001501
(1634776337.215428) can0 141#8426D3290080BE08
(1634776337.215675) can0 0D0#510000000000FFFF
(1634776337.215863) can0 0D1#00000000
(1634776337.216093) can0 0D2#0000FFFF00000000
(1634776337.216318) can0 0D3#0006C0640000BA
(1634776337.216569) can0 0D4#0000000000000000
(1634776337.216832) can0 142#8426000000000000
(1634776337.217060) can0 018#FF91700C0000002C
(1634776337.221225) can0 372#0020010000000000
(1634776337.223096) can0 156#0080000000000000
(1634776337.225182) can0 140#000F004000001501
(1634776337.225416) can0 141#8426D3290080BE08
(1634776337.225661) can0 142#8426000000000000
(1634776337.225903) can0 144#C000005526A4A000
(1634776337.226136) can0 152#F0D7000000010800
(1634776337.226860) can0 018#FF91700E0000002E
(1634776337.234270) can0 282#77524B8080012000
(1634776337.235197) can0 140#0000004000001501
(1634776337.235432) can0 141#8426D3290080BE08
(1634776337.235679) can0 0D0#510000000000FFFF
(1634776337.235863) can0 0D1#00000000
(1634776337.236096) can0 0D2#0000FFFF00000000
(1634776337.236320) can0 0D3#0006C0640000BB
(1634776337.236570) can0 0D4#0000000000000000
(1634776337.236836) can0 142#8426000000000000
(1634776337.237068) can0 018#FF91700000000020
(1634776337.237305) can0 360#00004040DA000100
(1634776337.237542) can0 361#060900D827507A6B
(1634776337.245180) can0 140#0001004000001501
(1634776337.245414) can0 141#8426D3290080BE08
(1634776337.245658) can0 142#8426000000000000
(1634776337.245902) can0 144#C000005526A4A000
(1634776337.246136) can0 152#F0E7000000010800
(1634776337.246384) can0 156#0080000000000000
(1634776337.246852) can0 018#FF91700200000022
(1634776337.248559) can0 370#0000230100050000
(1634776337.252993) can0 442#4002000000000000
(1634776337.255197) can0 140#0002004000001501
(1634776337.255431) can0 141#8426D3290080BE08
(1634776337.255679) can0 0D0#510000000000FFFF
(1634776337.255863) can0 0D1#00000000
(1634776337.256095) can0 0D2#0000FFFF00000000
(1634776337.256320) can0 0D3#0006C0640000BC
(1634776337.256570) can0 0D4#0000000000000000
(1634776337.256833) can0 142#8426000000000000
(1634776337.257048) can0 018#FF91700400000024
(1634776337.263006) can0 156#0080000000000000
(1634776337.265181) can0 140#0003004000001501
(1634776337.265414) can0 141#8426D3290080BE08
(1634776337.265659) can0 142#8426000000000000
(1634776337.265903) can0 144#C000005526A4A000
(1634776337.266135) can0 152#F0F7000000010800
(1634776337.266841) can0 018#FF91700600000026
(1634776337.275198) can0 140#0004004000001501
(1634776337.275432) can0 141#8426D3290080BE08
(1634776337.275680) can0 0D0#510000000000FFFF
(1634776337.275862) can0 0D1#00000000
(1634776337.276094) can0 0D2#0000FFFF00000000
(1634776337.276320) can0 0D3#0006C0640000BD
(1634776337.276571) can0 0D4#0000000000000000
(1634776337.276834) can0 142#8426000000000000
(1634776337.277049) can0 018#FF91700800000028
(1634776337.277285) can0 6E2#A2800054585858FE
(1634776337.283037) can0 156#0080000000000000
(1634776337.285181) can0 140#0005004000001501
(1634776337.285416) can0 141#8426D3290080BE08
(1634776337.285660) can0 142#8426000000000000
(1634776337.285902) can0 144#C000005526A4A000
(1634776337.286152) can0 152#F007000000010800
(1634776337.286380) can0 360#00004040DA000100
(1634776337.286609) can0 361#060900D828407A6C
(1634776337.286871) can0 018#FF91700A0000002A
(1634776337.294219) can0 282#77624B8080012000
(1634776337.295200) can0 140#0006004000001501
(1634776337.295434) can0 141#8426D3290080BE08
(1634776337.295682) can0 0D0#510000000000FFFF
(1634776337.295864) can0 0D1#00000000
(1634776337.296099) can0 0D2#0000FFFF00000000
(1634776337.296327) can0 0D3#0006C0640000BE
(1634776337.296577) can0 0D4#0000000000000000
(1634776337.296836) can0 018#FF91700C0000002C
(1634776337.297067) can0 142#8426000000000000
(1634776337.299321) can0 370#0000230100060000
(1634776337.305182) can0 140#0007004000001501
(1634776337.305416) can0 141#8426D3290080BE08
(1634776337.305660) can0 142#8426000000000000
(1634776337.305902) can0 144#C000005526A4A000
(1634776337.306138) can0 152#F017000000010800
(1634776337.306386) can0 156#0080000000000000
(1634776337.306835) can0 018#FF91700E0000002E
(1634776337.315296) can0 140#0008004000001501
(1634776337.315543) can0 0D0#510000000000FFFF
(1634776337.315711) can0 0D1#00000000
(1634776337.315981) can0 0D2#0000FFFF00000000
(1634776337.316184) can0 0D3#0006C0640000BF
(1634776337.316438) can0 0D4#0000000000000000
(1634776337.316672) can0 141#8426D3290080BE08
(1634776337.316933) can0 018#FF91700000000020
(1634776337.317163) can0 142#8426000000000000
(1634776337.321213) can0 372#0030010000000000
(1634776337.322947) can0 156#0080000000000000
(1634776337.325182) can0 140#0009004000001501
(1634776337.325416) can0 141#8426D3290080BE08
(1634776337.325660) can0 142#8426000000000000
(1634776337.325902) can0 144#C000005526A4A000
(1634776337.326138) can0 152#F027000000010800
(1634776337.326825) can0 018#FF91700200000022
(1634776337.335200) can0 140#000A004000001501
(1634776337.335433) can0 141#8426D3290080BE08
(1634776337.335680) can0 0D0#510000000000FFFF
(1634776337.335862) can0 0D1#00000000
(1634776337.336099) can0 0D2#0000FFFF00000000
(1634776337.336326) can0 0D3#0006C0640000C0
(1634776337.336576) can0 0D4#0000000000000000
(1634776337.336834) can0 018#FF91700400000024
(1634776337.337063) can0 142#8426000000000000
(1634776337.337304) can0 360#00004040DA000100
(1634776337.337537) can0 361#060900D829607A6B
(1634776337.343055) can0 156#0080000000000000
(1634776337.345187) can0 140#000B004000001501
(1634776337.345419) can0 141#8426D3290080BE08
(1634776337.345663) can0 142#8426000000000000
(1634776337.345920) can0 144#C000005526A4A000
(1634776337.346150) can0 440#4202000000000000
(1634776337.346818) can0 018#FF91700600000026
(1634776337.348822) can0 152#F037000000010800
(1634776337.349609) can0 370#0000230100070000
(1634776337.354186) can0 282#77724B8080012000
(1634776337.355199) can0 140#000C004000001501
(1634776337.355434) can0 141#8426D3290080BE08
(1634776337.355681) can0 0D0#510000000000FFFF
(1634776337.355863) can0 0D1#00000000
(1634776337.356098) can0 0D2#0000FFFF00000000
(1634776337.356326) can0 0D3#0006C0640000C1
(1634776337.356577) can0 0D4#0000000000000000
(1634776337.356835) can0 018#FF91700800000028
(1634776337.357065) can0 142#8426000000000000
(1634776337.365184) can0 140#000D004000001501
(1634776337.365417) can0 141#8426D3290080BE08
(1634776337.365662) can0 142#8426000000000000
(1634776337.365922) can0 144#C000005526A4A000
(1634776337.366143) can0 152#F047000000010800
(1634776337.366390) can0 156#0080000000000000
(1634776337.366816) can0 018#FF91700A0000002A
(1634776337.375202) can0 140#000E004000001501
(1634776337.375435) can0 141#8426D3290080BE08
(1634776337.375683) can0 0D0#510000000000FFFF
(1634776337.375865) can0 0D1#00000000
(1634776337.376097) can0 0D2#0000FFFF00000000
(1634776337.376327) can0 0D3#0006C0640000C2
(1634776337.376576) can0 0D4#0000000000000000
(1634776337.376835) can0 018#FF91700C0000002C
(1634776337.377065) can0 142#8426000000000000
(1634776337.382939) can0 156#0080000000000000
(1634776337.385189) can0 140#000F004000001501
(1634776337.385423) can0 141#8426D3290080BE08
(1634776337.385667) can0 142#8426000000000000
(1634776337.385924) can0 144#C000005526A4A000
(1634776337.386157) can0 152#F057000000010800
(1634776337.386388) can0 360#00004040DA000100
(1634776337.386618) can0 361#060900D82A507A6B
(1634776337.386871) can0 018#FF91700E0000002E
(1634776337.395205) can0 140#0000004000001501
(1634776337.395439) can0 141#8426D3290080BE08
(1634776337.395686) can0 0D0#510000000000FFFF
(1634776337.395849) can0 0D1#00000000
(1634776337.396110) can0 0D2#0000FFFF00000000
(1634776337.396333) can0 0D3#0006C0640000C3
(1634776337.396577) can0 0D4#0000000000000000
(1634776337.396841) can0 018#FF91700000000020
(1634776337.397071) can0 142#8426000000000000
(1634776337.400378) can0 370#0000230100080000
(1634776337.402989) can0 156#0080000000000000
(1634776337.405187) can0 140#0001004000001501
(1634776337.405421) can0 141#8426D3290080BE08
(1634776337.405665) can0 142#8426000000000000
(1634776337.405925) can0 144#C000005526A4A000
(1634776337.406146) can0 152#F067000000010800
(1634776337.406808) can0 018#FF91700200000022
(1634776337.414116) can0 282#77824B8080012000
(1634776337.415204) can0 140#0002004000001501
(1634776337.415438) can0 141#8426D3290080BE08
(1634776337.415686) can0 0D0#510000000000FFFF
(1634776337.415847) can0 0D1#00000000
(1634776337.416110) can0 0D2#0000FFFF00000000
(1634776337.416333) can0 0D3#0006C0640000C4
(1634776337.416578) can0 0D4#0000000000000000
(1634776337.416836) can0 018#FF91700400000024
(1634776337.417065) can0 142#8426000000000000
(1634776337.421206) can0 372#0040010000000000
(1634776337.425188) can0 140#0003004000001501
(1634776337.425422) can0 141#8426D3290080BE08
(1634776337.425666) can0 142#8426000000000000
(1634776337.425922) can0 144#C000005526A4A000
(1634776337.426144) can0 152#F077000000010800
(1634776337.426392) can0 156#0080000000000000
(1634776337.426796) can0 018#FF91700600000026
(1634776337.435204) can0 140#0004004000001501
(1634776337.435438) can0 141#8426D3290080BE08
(1634776337.435685) can0 0D0#510000000000FFFF
(1634776337.435848) can0 0D1#00000000
(1634776337.436109) can0 0D2#0000FFFF00000000
(1634776337.436331) can0 0D3#0006C0640000C5
(1634776337.436576) can0 0D4#0000000000000000
(1634776337.436835) can0 018#FF91700800000028
(1634776337.437065) can0 142#8426000000000000
(1634776337.437305) can0 360#00004040DA000100
(1634776337.437538) can0 361#060900D82B207A6C
(1634776337.437807) can0 6E1#A180000000700000
(1634776337.442982) can0 442#4002000000000000
(1634776337.443220) can0 156#0080000000000000
(1634776337.445188) can0 140#0005004000001501
(1634776337.445422) can0 141#8426D3290080BE08
(1634776337.445666) can0 142#8426000000000000
(1634776337.445922) can0 144#C000005526A4A000
(1634776337.446144) can0 152#F087000000010800
(1634776337.446780) can0 018#FF91700A0000002A
(1634776337.450693) can0 370#0000230100090000
(1634776337.455207) can0 140#0006004000001501
(1634776337.455440) can0 141#8426D3290080BE08
(1634776337.455688) can0 0D0#510000000000FFFF
(1634776337.455852) can0 0D1#00000000
(1634776337.456112) can0 0D2#0000FFFF00000000
(1634776337.456335) can0 0D3#0006C0640000C6
(1634776337.456581) can0 0D4#0000000000000000
(1634776337.456840) can0 018#FF91700C0000002C
(1634776337.457070) can0 142#8426000000000000
(1634776337.462992) can0 156#0080000000000000
(1634776337.465190) can0 140#0007004000001501
(1634776337.465424) can0 141#8426D3290080BE08
(1634776337.465669) can0 142#8426000000000000
(1634776337.465924) can0 144#C000005526A4A000
(1634776337.466146) can0 152#F097000000010800
(1634776337.466780) can0 018#FF91700E0000002E
(1634776337.474063) can0 282#77924B8080012000
(1634776337.475306) can0 140#0008004000001501
(1634776337.475538) can0 141#8426D3290080BE08
(1634776337.475810) can0 0D0#510000000000FFFF
(1634776337.475932) can0 0D1#00000000
(1634776337.476208) can0 0D2#0000FFFF00000000
(1634776337.476429) can0 0D3#0006C0640000C7
(1634776337.476677) can0 0D4#0000000000000000
(1634776337.476938) can0 018#FF91700000000020
(1634776337.477167) can0 142#8426000000000000
(1634776337.485190) can0 140#0009004000001501
(1634776337.485425) can0 141#8426D3290080BE08
(1634776337.485668) can0 142#8426000000000000
(1634776337.485923) can0 144#C000005526A4A000
(1634776337.486156) can0 152#F0A7000000010800
(1634776337.486388) can0 156#0080000000000000
(1634776337.486642) can0 360#00004040DA000100
(1634776337.486900) can0 018#FF91700200000022
(1634776337.487115) can0 361#060900D82C607A6B
(1634776337.495208) can0 140#000A004000001501
(1634776337.495442) can0 141#8426D3290080BE08
(1634776337.495689) can0 0D0#510000000000FFFF
(1634776337.495854) can0 0D1#00000000
(1634776337.496114) can0 0D2#0000FFFF00000000
(1634776337.496335) can0 0D3#0006C0640000C8
(1634776337.496580) can0 0D4#0000000000000000
(1634776337.496839) can0 018#FF91700400000024
(1634776337.497059) can0 142#8426000000000000
(1634776337.501284) can0 370#00002301000A0000
(1634776337.502925) can0 156#0080000000000000
(1634776337.505193) can0 140#000B004000001501
(1634776337.505427) can0 141#8426D3290080BE08
(1634776337.505671) can0 142#8426000000000000
(1634776337.505936) can0 144#C000005526A4A000
(1634776337.506141) can0 152#F0B7000000010800
(1634776337.506771) can0 018#FF91700600000026
(1634776337.515208) can0 140#000C004000001501
(1634776337.515442) can0 141#8426D3290080BE08
(1634776337.515690) can0 0D0#510000000000FFFF
(1634776337.515856) can0 0D1#00000000
(1634776337.516114) can0 0D2#0000FFFF00000000
(1634776337.516335) can0 0D3#0006C0640000C9
(1634776337.516583) can0 0D4#0000000000000000
(1634776337.516842) can0 018#FF91700800000028
(1634776337.517062) can0 142#8426000000000000
(1634776337.521206) can0 372#0050010000000000
(1634776337.522977) can0 156#0080000000000000
(1634776337.525194) can0 140#000D004000001501
(1634776337.525427) can0 141#8426D3290080BE08
(1634776337.525670) can0 142#8426000000000000
(1634776337.525936) can0 144#C000005526A4A000
(1634776337.526140) can0 152#F0C7000000010800
(1634776337.526767) can0 018#FF91700A0000002A
(1634776337.534022) can0 282#77A24B8080012000
(1634776337.535208) can0 140#000E004000001501
(1634776337.535443) can0 141#8426D3290080BE08
(1634776337.535691) can0 0D0#510000000000FFFF
(1634776337.535857) can0 0D1#00000000
(1634776337.536113) can0 0D2#0000FFFF00000000
(1634776337.536334) can0 0D3#0006C0640000CA
(1634776337.536581) can0 0D4#0000000000000000
(1634776337.536840) can0 018#FF91700C0000002C
(1634776337.537070) can0 142#8426000000000000
(1634776337.537310) can0 360#00004040DA000100
(1634776337.537542) can0 361#060900D82D607A6C
(1634776337.537811) can0 440#4202000000000000
(1634776337.545197) can0 140#000F004000001501
(1634776337.545431) can0 141#8426D3290080BE08
(1634776337.545675) can0 142#8426000000000000
(1634776337.545931) can0 144#C000005526A4A000
(1634776337.546153) can0 152#F0D7000000010800
(1634776337.546399) can0 156#0080000000000000
(1634776337.546739) can0 018#FF91700E0000002E
(1634776337.551725) can0 370#00002301000B0000
(1634776337.555212) can0 140#0000004000001501
(1634776337.555445) can0 141#8426D3290080BE08
(1634776337.555693) can0 0D0#510000000000FFFF
(1634776337.555857) can0 0D1#00000000
(1634776337.556116) can0 0D2#0000FFFF00000000
(1634776337.556337) can0 0D3#0006C0640000CB
(1634776337.556586) can0 0D4#0000000000000000
(1634776337.556851) can0 018#FF91700000000020
(1634776337.557081) can0 142#8426000000000000
(1634776337.562854) can0 156#0080000000000000
(1634776337.565194) can0 140#0001004000001501
(1634776337.565428) can0 141#8426D3290080BE08
(1634776337.565671) can0 142#8426000000000000
(1634776337.565935) can0 144#C000005526A4A000
(1634776337.566143) can0 152#F0E7000000010800
(1634776337.566736) can0 018#FF91700200000022
(1634776337.575213) can0 140#0002004000001501
(1634776337.575447) can0 141#8426D3290080BE08
(1634776337.575694) can0 0D0#510000000000FFFF
(1634776337.575859) can0 0D1#00000000
(1634776337.576118) can0 0D2#0000FFFF00000000
(1634776337.576339) can0 0D3#0006C0640000CC
(1634776337.576586) can0 0D4#0000000000000000
(1634776337.576844) can0 018#FF91700400000024
(1634776337.577075) can0 142#8426000000000000
(1634776337.582856) can0 156#0080000000000000
(1634776337.585194) can0 140#0003004000001501
(1634776337.585429) can0 141#8426D3290080BE08
(1634776337.585672) can0 142#8426000000000000
(1634776337.585937) can0 144#C000005526A4A000
(1634776337.586154) can0 152#F0F7000000010800
(1634776337.586398) can0 360#00004040DA000100
(1634776337.586633) can0 361#060900D82E507A6C
(1634776337.586869) can0 018#FF91700600000026
(1634776337.593986) can0 282#77B24B8080012000
(1634776337.595212) can0 140#0004004000001501
(1634776337.595446) can0 141#8426D3290080BE08
(1634776337.595694) can0 0D0#510000000000FFFF
(1634776337.595859) can0 0D1#00000000
(1634776337.596117) can0 0D2#0000FFFF00000000
(1634776337.596338) can0 0D3#0006C0640000CD
(1634776337.596587) can0 0D4#0000000000000000
(1634776337.596846) can0 018#FF91700800000028
(1634776337.597076) can0 142#8426000000000000
(1634776337.602271) can0 370#00002301000C0000
(1634776337.605195) can0 140#0005004000001501
(1634776337.605429) can0 141#8426D3290080BE08
(1634776337.605673) can0 142#8426000000000000
(1634776337.605930) can0 144#C000005526A4A000
(1634776337.606154) can0 152#F007000000010800
(1634776337.606401) can0 156#0080000000000000
(1634776337.606724) can0 018#FF91700A0000002A
(1634776337.615217) can0 140#0006004000001501
(1634776337.615449) can0 141#8426D3290080BE08
(1634776337.615696) can0 0D0#510000000000FFFF
(1634776337.615893) can0 0D1#00000000
(1634776337.616119) can0 0D2#0000FFFF00000000
(1634776337.616340) can0 0D3#0006C0640000CE
(1634776337.616589) can0 0D4#0000000000000000
(1634776337.616848) can0 018#FF91700C0000002C
(1634776337.617078) can0 142#8426000000000000
(1634776337.617324) can0 374#0000000100000000
(1634776337.621192) can0 372#0060010000000000
(1634776337.622866) can0 156#0080000000000000
(1634776337.625197) can0 140#0007004000001501
(1634776337.625431) can0 141#8426D3290080BE08
(1634776337.625675) can0 142#8426000000000000
(1634776337.625935) can0 144#C000005526A4A000
(1634776337.626156) can0 152#F017000000010800
(1634776337.626715) can0 018#FF91700E0000002E
(1634776337.632680) can0 442#4002000000000000
(1634776337.635310) can0 140#0008004000001501
(1634776337.635558) can0 0D0#510000000000FFFF
(1634776337.635725) can0 0D1#00000000
(1634776337.635990) can0 0D2#0000FFFF00000000
(1634776337.636193) can0 0D3#0006C0640000CF
(1634776337.636450) can0 0D4#0000000000000000
(1634776337.636685) can0 141#8426D3290080BE08
(1634776337.636946) can0 018#FF91700000000020
(1634776337.637175) can0 142#8426000000000000
(1634776337.637419) can0 360#00004040DA000100
(1634776337.637655) can0 361#060900D82F507A6B
(1634776337.637917) can0 375#0001000400000010
(1634776337.642921) can0 156#0080000000000000
(1634776337.645197) can0 140#0009004000001501
(1634776337.645431) can0 141#8426D3290080BE08
(1634776337.645675) can0 142#8426000000000000
(1634776337.645935) can0 144#C000005526A4A000
(1634776337.646157) can0 152#F027000000010800
(1634776337.646712) can0 018#FF91700200000022
(1634776337.652809) can0 370#00002301000D0000
(1634776337.653950) can0 282#77C24B8080012000
(1634776337.655215) can0 140#000A004000001501
(1634776337.655448) can0 141#8426D3290080BE08
(1634776337.655696) can0 0D0#510000000000FFFF
(1634776337.655892) can0 0D1#00000000
(1634776337.656119) can0 0D2#0000FFFF00000000
(1634776337.656343) can0 0D3#0006C0640000D0
(1634776337.656587) can0 0D4#0000000000000000
(1634776337.656846) can0 018#FF91700400000024
(1634776337.657075) can0 142#8426000000000000
(1634776337.657310) can0 63B#00001A7B000028F8
(1634776337.665201) can0 140#000B004000001501
(1634776337.665434) can0 141#8426D3290080BE08
(1634776337.665679) can0 142#8426000000000000
(1634776337.665937) can0 144#C000005526A4A000
(1634776337.666159) can0 152#F037000000010800
(1634776337.666405) can0 156#0080000000000000
(1634776337.666703) can0 018#FF91700600000026
(1634776337.675217) can0 140#000C004000001501
(1634776337.675450) can0 141#8426D3290080BE08
(1634776337.675698) can0 0D0#510000000000FFFF
(1634776337.675894) can0 0D1#00000000
(1634776337.676121) can0 0D2#0000FFFF00000000
(1634776337.676344) can0 0D3#0006C0640000D1
(1634776337.676589) can0 0D4#0000000000000000
(1634776337.676848) can0 018#FF91700800000028
(1634776337.677077) can0 142#8426000000000000
(1634776337.682733) can0 156#0080000000000000
(1634776337.685200) can0 140#000D004000001501
(1634776337.685434) can0 141#8426D3290080BE08
(1634776337.685679) can0 142#8426000000000000
(1634776337.685936) can0 144#C000005526A4A000
(1634776337.686169) can0 152#F047000000010800
(1634776337.686408) can0 360#00004040DA000100
(1634776337.686639) can0 361#060900D820707A6B
(1634776337.686897) can0 018#FF91700A0000002A
(1634776337.695216) can0 140#000E004000001501
(1634776337.695450) can0 141#8426D3290080BE08
(1634776337.695697) can0 0D0#510000000000FFFF
(1634776337.695895) can0 0D1#00000000
(1634776337.696121) can0 0D2#0000FFFF00000000
(1634776337.696345) can0 0D3#0006C0640000D2
(1634776337.696588) can0 0D4#0000000000000000
(1634776337.696847) can0 018#FF91700C0000002C
(1634776337.697078) can0 142#8426000000000000
(1634776337.702737) can0 156#0080000000000000
(1634776337.703315) can0 370#00002301000E0000
(1634776337.705205) can0 140#000F004000001501
(1634776337.705439) can0 141#8426D3290080BE08
(1634776337.705682) can0 142#8426000000000000
(1634776337.705937) can0 144#C000005526A4A000
(1634776337.706161) can0 152#F057000000010800
(1634776337.706691) can0 018#FF91700E0000002E
(1634776337.713897) can0 282#77D24B8080012000
(1634776337.715219) can0 140#0000004000001501
(1634776337.715466) can0 0D0#510000000000FFFF
(1634776337.715633) can0 0D1#00000000
(1634776337.715897) can0 0D2#0000FFFF00000000
(1634776337.716105) can0 0D3#0006C0640000D3
(1634776337.716359) can0 0D4#0000000000000000
(1634776337.716593) can0 141#8426D3290080BE08
(1634776337.716855) can0 018#FF91700000000020
(1634776337.717085) can0 142#8426000000000000
(1634776337.721181) can0 372#0070010000000000
(1634776337.725200) can0 140#0001004000001501
(1634776337.725434) can0 141#8426D3290080BE08
(1634776337.725677) can0 142#8426000000000000
